!Keysight Technologies,N5245B,MY57181400,A.12.70.07
!Date: Monday, January 1, 2020 00:00:00
!Correction: S11(Full 16 Port(1,2,3,4,5,6,7,8,9,10,11,12,13,14,15,16)) 
!S12(Full 16 Port(1,2,3,4,5,6,7,8,9,10,11,12,13,14,15,16)) 
!S13(Full 16 Port(1,2,3,4,5,6,7,8,9,10,11,12,13,14,15,16)) 
!S14(Full 16 Port(1,2,3,4,5,6,7,8,9,10,11,12,13,14,15,16)) 
!S21(Full 16 Port(1,2,3,4,5,6,7,8,9,10,11,12,13,14,15,16)) 
!S22(Full 16 Port(1,2,3,4,5,6,7,8,9,10,11,12,13,14,15,16)) 
!S23(Full 16 Port(1,2,3,4,5,6,7,8,9,10,11,12,13,14,15,16)) 
!S24(Full 16 Port(1,2,3,4,5,6,7,8,9,10,11,12,13,14,15,16)) 
!S31(Full 16 Port(1,2,3,4,5,6,7,8,9,10,11,12,13,14,15,16)) 
!S32(Full 16 Port(1,2,3,4,5,6,7,8,9,10,11,12,13,14,15,16)) 
!S33(Full 16 Port(1,2,3,4,5,6,7,8,9,10,11,12,13,14,15,16)) 
!S34(Full 16 Port(1,2,3,4,5,6,7,8,9,10,11,12,13,14,15,16)) 
!S41(Full 16 Port(1,2,3,4,5,6,7,8,9,10,11,12,13,14,15,16)) 
!S42(Full 16 Port(1,2,3,4,5,6,7,8,9,10,11,12,13,14,15,16)) 
!S43(Full 16 Port(1,2,3,4,5,6,7,8,9,10,11,12,13,14,15,16)) 
!S44(Full 16 Port(1,2,3,4,5,6,7,8,9,10,11,12,13,14,15,16)) 
!S4P File: Measurements: <S11,S12,S13,S14>,
!<S21,S22,S23,S24>,
!<S31,S32,S33,S34>,
!<S41,S42,S43,S44>:
# Hz S  dB   R 50
10000000 -22.079432 8.1803112 -0.51348269 -52.815975 -25.788513 30.50758 -32.561375 177.69525
-0.50104618 -52.842247 -21.872536 7.7310867 -32.165512 175.91344 -25.662281 33.345882
-25.820812 30.834723 -32.447693 177.09599 -20.349657 15.180865 -0.5193345 -52.846371
-32.459751 175.55833 -25.933361 33.016754 -3.3922508 -52.908066 -22.867897 2.5090449
16248437.5 -20.56196 -11.428452 -0.7097553 -85.461182 -25.132166 8.876194 -29.541479 129.73337
-0.70199287 -85.387344 -20.574556 -8.0643167 -29.482452 129.91438 -25.04818 15.137278
-25.151218 8.7132998 -29.498789 129.83003 -20.129589 -11.343214 -0.74043846 -85.391891
-29.658089 130.05989 -25.202482 15.247275 -1.2858975 -85.500832 -22.727686 -6.546876
22496875 -21.616066 -25.0767 -0.83270818 -117.70807 -25.41403 -5.8823948 -28.181791 72.426025
-0.82618642 -117.67659 -21.399193 -18.179232 -28.213638 72.416473 -24.535709 3.1189907
-25.353529 -6.0846195 -28.185263 72.202309 -21.397402 -22.403553 -0.86193025 -117.69733
-28.367287 72.241486 -24.606016 2.8943782 -1.295113 -117.7364 -23.214331 -14.499661
28745312.5 -24.090834 -49.105659 -0.74171543 -149.00037 -28.412352 -34.835899 -31.796555 6.9280128
-0.72882324 -149.03032 -23.246698 -43.034153 -31.72006 7.0856671 -27.069868 -28.481329
-28.346815 -34.740021 -31.771097 7.4851661 -23.437984 -42.430096 -0.78377104 -148.94724
-31.894711 6.929996 -27.168104 -28.349522 -1.1022648 -149.02036 -25.204531 -36.944389
34993750 -37.75071 -0.37388405 -0.60583496 177.44487 -35.247654 68.457069 -40.320366 48.978493
-0.60067344 177.43524 -36.619598 3.187886 -40.243664 50.23259 -34.613892 65.631714
-35.255699 68.600235 -40.219913 49.71003 -33.697105 -2.3081083 -0.66444051 177.68542
-40.538284 49.082722 -34.69907 64.89521 -0.91814411 177.61066 -34.518295 8.4770098
41242187.5 -23.736002 28.879454 -0.73021585 144.09218 -24.364296 42.665253 -31.375877 19.923088
-0.72270131 144.10521 -23.841614 34.246662 -31.18059 20.092308 -24.441755 47.235561
-24.352291 42.695526 -31.151489 19.753586 -22.987841 25.969208 -0.78120404 144.42271
-31.448931 20.096697 -24.492336 47.060699 -1.0097184 144.38707 -25.682787 28.001869
47490625 -20.45063 3.2659009 -0.88580436 111.58687 -22.298241 12.608788 -28.550087 -26.715544
-0.88172424 111.57114 -20.833279 14.829898 -28.451059 -26.526731 -22.490053 25.36256
-22.289093 12.695032 -28.473251 -26.521826 -19.99164 2.2153695 -0.93651348 111.9631
-28.631781 -26.419941 -22.558977 25.488071 -1.148795 111.93958 -23.149475 12.659212
53739062.5 -20.284143 -20.231871 -1.0209395 79.750687 -23.104076 -12.073032 -27.432337 -76.107033
-1.0158933 79.749039 -19.817503 -1.6339633 -27.395357 -76.153458 -22.073036 9.2636471
-23.081127 -12.053843 -27.386297 -76.175323 -19.980165 -19.070749 -1.0713931 80.145767
-27.55344 -76.563805 -22.115509 9.3075008 -1.2832942 80.100754 -21.880735 -1.0407151
59987500 -21.809446 -40.088211 -1.0281584 48.441616 -25.811621 -32.255627 -28.512924 -130.26813
-1.0230858 48.488716 -20.018156 -23.276058 -28.478445 -130.14394 -22.912315 -13.271262
-25.814451 -32.186348 -28.497068 -130.19691 -21.54554 -37.129768 -1.0813851 48.893822
-28.634333 -130.59492 -22.978865 -13.291862 -1.2962891 48.882622 -21.61125 -20.746056
66235937.5 -27.256126 -58.874973 -0.85306823 16.311192 -36.618687 -44.823467 -35.149654 -171.71043
-0.84306324 16.3078 -25.125469 -48.37384 -35.129742 -171.20599 -31.454517 -32.633301
-36.524216 -44.774349 -35.092312 -171.27121 -26.844219 -51.910839 -0.9167043 16.881819
-35.289577 -171.77481 -31.600466 -32.2659 -1.1362333 16.835432 -25.835835 -41.680893
72484375 -29.636358 24.915548 -0.82432127 -17.245657 -27.166475 58.547775 -33.91291 -141.3353
-0.82003385 -17.241299 -28.616888 27.548761 -33.697842 -140.51064 -26.356497 56.991138
-27.153799 58.597599 -33.698429 -141.08389 -28.082272 24.97773 -0.89205098 -16.571772
-34.024063 -141.26956 -26.463007 57.04454 -1.1035752 -16.590958 -28.519485 16.424299
78732812.5 -21.68215 12.807033 -0.94913971 -50.200874 -21.728703 26.429203 -29.341391 -177.2934
-0.93937153 -50.196915 -21.628139 22.872364 -29.219505 -177.63239 -21.430788 33.970573
-21.708038 26.352041 -29.206896 -177.3373 -20.843779 12.358478 -1.0064415 -49.43124
-29.476969 -177.32956 -21.538231 33.922344 -1.2247424 -49.445217 -22.806747 17.457895
84981250 -19.660091 -14.069634 -1.0899479 -82.479057 -20.911213 -5.5832739 -27.443609 137.88123
-1.0856605 -82.497452 -19.456562 6.0591536 -27.368519 137.89029 -20.351593 13.423079
-20.920181 -5.6359744 -27.354691 137.97006 -19.021143 -12.869555 -1.1420188 -81.707558
-27.59807 137.92142 -20.423811 13.488853 -1.3608108 -81.677376 -20.658115 4.9359846
91229687.5 -20.420223 -38.259029 -1.1926941 -114.15932 -22.957088 -33.8969 -27.106699 89.889702
-1.1862477 -114.16071 -18.637667 -11.804643 -27.002689 90.362907 -20.550266 -5.8425546
-22.958313 -33.818516 -27.035322 90.284203 -19.77416 -35.229801 -1.2522565 -113.34892
-27.228691 89.765579 -20.614716 -5.8879461 -1.4660835 -113.3167 -19.649847 -10.265722
97478125 -23.282036 -58.173618 -1.1505138 -145.57397 -28.642891 -57.77993 -29.212523 41.32563
-1.1437147 -145.55254 -19.953066 -35.846977 -29.096512 42.093983 -23.402418 -30.36973
-28.594521 -57.596008 -29.119333 41.970955 -22.491531 -52.507782 -1.2226369 -144.69444
-29.348661 41.418625 -23.487301 -30.378811 -1.4401416 -144.65935 -20.608358 -32.415131
103726562.5 -32.734844 -57.274746 -1.0064906 -178.16777 -37.803699 75.907944 -34.174828 28.32279
-1.0010487 -178.17419 -27.500992 -38.700123 -33.923954 28.33884 -34.706112 21.918932
-37.702305 76.219955 -33.917034 28.4536 -29.862539 -47.702995 -1.0827487 -177.13423
-34.260929 28.725048 -34.746571 22.021986 -1.3026226 -177.1012 -27.098391 -37.291786
109975000 -26.070696 23.896261 -1.0295902 148.60881 -23.524302 47.76828 -30.730867 23.042337
-1.0219129 148.60699 -24.037258 18.650316 -30.62689 22.811691 -22.49424 43.697197
-23.52767 47.667206 -30.621498 22.650953 -25.267118 15.437652 -1.099023 149.76903
-30.863411 23.048086 -22.570002 43.666523 -1.3178434 149.79068 -25.437828 12.815002
116223437.5 -20.398794 1.0994824 -1.1398345 115.90435 -20.083883 12.688273 -27.93539 -13.137445
-1.1336018 115.89999 -19.702227 7.754653 -27.901707 -13.446855 -19.429949 20.011946
-20.091059 12.648361 -27.895777 -13.398621 -19.964962 -2.5988019 -1.1999604 117.08989
-28.085888 -12.966139 -19.510399 19.984781 -1.4185919 117.12315 -21.42325 8.0726995
122471875 -19.147125 -26.91361 -1.2591698 83.71862 -20.201439 -22.071487 -26.610334 -55.084637
-1.2508131 83.693512 -18.11393 -8.8242388 -26.657314 -55.356705 -18.953344 -0.98818678
-20.19879 -22.018631 -26.681761 -55.222244 -18.721189 -29.136795 -1.3150824 84.908852
-26.744011 -55.139675 -19.047714 -1.0473783 -1.5374347 84.934967 -19.644253 -4.4410048
128720312.5 -20.544466 -51.399349 -1.3343817 52.02737 -23.635386 -55.351517 -26.56319 -100.65601
-1.3282082 52.016544 -17.814184 -28.882771 -26.658613 -100.09281 -20.01812 -22.433683
-23.627533 -55.218922 -26.656912 -100.20226 -20.19294 -54.017525 -1.4059643 53.269798
-26.689871 -100.53525 -20.102793 -22.513269 -1.6219952 53.288185 -18.916412 -22.027838
134968750 -24.659113 -67.651039 -1.2719959 20.447884 -34.795933 -92.846657 -28.912291 -142.57147
-1.2665561 20.424398 -20.439844 -54.33688 -29.054672 -141.20171 -25.621735 -45.131676
-34.782883 -92.953499 -29.041719 -141.12825 -24.47716 -71.560555 -1.352615 21.797056
-29.090139 -142.54437 -25.693235 -45.114769 -1.5679226 21.821188 -20.870947 -44.615349
141217187.5 -32.231892 -27.634195 -1.1783575 -12.292238 -28.232342 74.233849 -31.054955 -154.27382
-1.1677252 -12.310282 -29.024967 -31.754879 -31.012201 -151.50356 -27.811022 45.923393
-28.28426 74.3414 -31.000212 -151.61256 -34.060383 -30.530165 -1.2553515 -10.781775
-31.165955 -154.24992 -27.884151 45.900909 -1.4680849 -10.775874 -26.43935 -29.387962
147465625 -23.606503 5.2575836 -1.2130622 -45.292019 -20.968287 36.120987 -28.733334 -172.83842
-1.2074077 -45.298401 -22.71887 11.003616 -28.435457 -171.25941 -19.959646 30.520479
-20.978849 36.069393 -28.458551 -171.44934 -23.776888 11.22965 -1.2796836 -43.698246
-28.858488 -173.14417 -20.045994 30.498575 -1.4971472 -43.665131 -23.101078 -0.68868446
153714062.5 -19.491131 -18.110332 -1.3101256 -77.864975 -18.858255 -0.91832864 -26.728567 151.99445
-1.3070472 -77.8713 -18.981136 -1.2460308 -26.511206 152.57907 -17.926796 6.5877995
-18.883532 -0.92165536 -26.506201 152.55518 -19.385809 -13.587945 -1.3751296 -76.249367
-26.863676 151.9225 -17.995821 6.5815663 -1.5916404 -76.228134 -20.083275 -6.3318305
159962500 -18.997662 -47.663898 -1.4159243 -110.04446 -19.96398 -38.836681 -25.673515 111.96871
-1.4087436 -110.05512 -17.542469 -18.033024 -25.515276 112.26706 -18.018108 -14.99859
-19.977552 -38.840237 -25.546061 112.33375 -18.709261 -43.105549 -1.4794835 -108.3937
-25.805449 111.8912 -18.100508 -14.966546 -1.6981944 -108.39109 -18.543064 -18.072023
166210937.5 -21.803722 -74.464203 -1.4967123 -141.76537 -25.581732 -80.030365 -25.562366 68.189987
-1.4904802 -141.75984 -17.573013 -38.036182 -25.49213 69.095375 -19.949381 -36.028324
-25.559336 -80.140327 -25.475367 69.00676 -21.350323 -70.490845 -1.5700569 -140.04929
-25.695045 68.226273 -20.02883 -35.968098 -1.7875289 -140.03928 -18.180794 -34.974327
172459375 -28.950924 -82.685143 -1.4348396 -173.31908 -37.869801 130.75877 -27.765364 28.411411
-1.4251318 -173.32765 -21.033661 -57.539394 -27.69208 29.573006 -27.823309 -44.287197
-37.899406 131.28546 -27.702288 29.484127 -28.216581 -82.085121 -1.5102577 -171.47499
-27.861004 28.321959 -27.894075 -44.132801 -1.7283553 -171.48131 -20.87818 -51.916336
178707812.5 -30.918806 6.316503 -1.3427835 153.94637 -23.499599 61.15807 -29.243198 13.576312
-1.3353575 153.93304 -25.907499 -22.406269 -29.09329 15.792907 -24.012739 34.463467
-23.526295 61.088264 -29.080376 15.890818 -31.894045 12.217083 -1.4174851 155.89195
-29.346895 13.435169 -24.09849 34.413815 -1.6358597 155.88918 -24.389149 -28.119368
184956250 -21.757275 1.0827085 -1.3859339 120.96724 -18.870972 24.774199 -27.208479 -8.5163136
-1.3807437 120.96661 -20.507982 -3.0647116 -26.877386 -6.7897105 -18.251276 16.043221
-18.888464 24.732256 -26.870453 -6.91363 -21.767483 8.7721519 -1.4556732 123.01347
-27.341381 -8.5201368 -18.330523 16.025501 -1.6755384 122.99791 -20.803596 -11.623539
191204687.5 -18.563967 -27.390228 -1.4885617 88.465569 -17.788712 -12.280045 -25.5851 -44.081844
-1.4815886 88.457848 -17.585154 -15.831356 -25.257187 -43.350403 -16.73205 -8.2022123
-17.805508 -12.275094 -25.278625 -43.466461 -18.288813 -19.287407 -1.5516845 90.547646
-25.729713 -44.133507 -16.815304 -8.2189817 -1.7749596 90.548561 -18.262249 -20.576954
197453125 -18.791931 -58.093273 -1.5904915 56.31789 -20.019033 -50.65007 -24.708138 -83.22403
-1.5850177 56.302742 -16.531639 -32.441963 -24.422829 -82.809822 -17.345463 -30.475874
-20.039074 -50.743816 -24.428865 -82.767342 -18.307245 -48.948174 -1.6580697 58.418015
-24.834358 -83.362503 -17.430002 -30.507576 -1.8799906 58.444168 -17.114546 -34.698357
203701562.5 -22.579094 -80.100883 -1.6654947 24.730204 -28.869097 -89.3526 -24.811283 -126.5632
-1.6612183 24.720694 -16.949619 -51.975662 -24.543934 -126.20281 -20.122044 -50.580864
-28.867311 -89.549644 -24.542009 -126.25407 -21.432186 -68.855225 -1.7426045 26.896664
-24.958321 -126.55515 -20.200718 -50.594578 -1.96013 26.92293 -17.098698 -52.933357
209950000 -28.958433 -71.479614 -1.587611 -6.9874144 -30.975439 72.30938 -26.928492 -161.96167
-1.5807128 -7.0125346 -20.490004 -66.640213 -26.647697 -161.85536 -28.794643 -39.555813
-30.960142 72.641449 -26.659805 -161.87755 -25.827002 -66.248573 -1.6690966 -4.6744962
-27.058846 -162.00345 -28.905577 -39.541016 -1.8883743 -4.6332808 -19.71591 -69.637871
216198437.5 -27.557917 -9.6993523 -1.5222362 -39.669365 -21.193964 42.303593 -27.820379 -179.65051
-1.5194089 -39.68758 -24.494762 -36.127434 -27.587946 -179.28264 -22.249962 22.558514
-21.229294 42.268703 -27.587055 -179.42336 -27.687553 -25.437569 -1.5927469 -37.237541
-27.93807 -179.6116 -22.325899 22.456627 -1.8050196 -37.178802 -24.076445 -56.337143
222446875 -20.499306 -14.266956 -1.5707847 -72.582214 -17.485399 10.114194 -26.002972 156.22025
-1.5638227 -72.572502 -19.764259 -16.845037 -25.737251 156.46852 -17.147717 2.7811489
-17.507103 10.131392 -25.745922 156.61366 -21.462322 -14.323069 -1.6254364 -70.061035
-26.136543 156.38301 -17.233757 2.670135 -1.8403479 -70.024742 -21.607851 -28.823391
228695312.5 -17.692987 -41.74329 -1.674582 -104.99847 -16.91765 -25.615385 -24.548172 120.32783
-1.6707876 -105.00864 -16.860615 -28.958025 -24.291576 120.3409 -15.926941 -22.628691
-16.928148 -25.556641 -24.289999 120.3334 -18.438938 -37.340595 -1.7249237 -102.5555
-24.674271 120.4252 -16.011131 -22.579432 -1.9420704 -102.48766 -18.588873 -34.431488
234943750 -18.114189 -71.434418 -1.7781045 -137.0061 -19.731731 -62.411518 -23.821833 80.727287
-1.7696046 -137.02364 -15.864536 -45.533939 -23.596615 80.472 -16.930073 -46.262741
-19.738979 -62.313622 -23.617481 80.502769 -18.837233 -64.406105 -1.8321904 -134.57295
-23.967607 80.724907 -17.011099 -46.290661 -2.0489442 -134.49403 -17.232519 -47.838867
241192187.5 -21.257706 -93.921021 -1.8074099 -168.57387 -29.303606 -97.645752 -24.368515 39.530949
-1.8015139 -168.58015 -16.552431 -64.107025 -24.139347 39.172157 -20.774799 -66.817558
-29.326851 -97.641739 -24.151682 39.147205 -21.983334 -81.135864 -1.8788357 -166.0563
-24.514692 39.529957 -20.861031 -66.778488 -2.0940852 -166.02069 -17.430635 -65.76429
247440625 -28.204611 -102.29137 -1.7473147 159.39128 -28.446653 61.801041 -25.819221 8.2241592
-1.7382742 159.3981 -19.704605 -72.577942 -25.572594 7.2845974 -29.887007 -27.402552
-28.460419 61.723534 -25.58987 7.2302904 -27.14019 -77.017128 -1.8265759 162.02948
-25.960423 8.1786423 -29.979513 -27.323816 -2.0378742 162.11742 -20.18605 -77.095329
253689062.5 -29.611187 -17.112785 -1.7114608 126.77379 -19.724566 30.034197 -26.180344 -13.349345
-1.7082063 126.76215 -21.85998 -50.17054 -26.048515 -14.976802 -20.433502 11.646196
-19.741854 30.049677 -26.042894 -14.994806 -27.244894 -24.349653 -1.7849331 129.57648
-26.306093 -13.336455 -20.515501 11.547633 -1.9944749 129.62257 -23.302053 -58.959179
259937500 -20.966452 -21.991505 -1.7704655 94.033875 -16.475775 -3.1510782 -24.634129 -40.436535
-1.7680793 94.023041 -18.559284 -39.174236 -24.668943 -41.676929 -16.136742 -11.452747
-16.480068 -3.1720219 -24.642212 -41.699165 -20.698204 -23.984711 -1.8303505 96.872482
-24.743904 -40.327732 -16.211699 -11.411889 -2.0398791 96.938759 -20.40563 -41.494198
266185937.5 -18.066219 -50.955391 -1.8689613 61.735313 -16.260822 -39.355328 -23.42042 -76.761826
-1.8591616 61.728088 -16.483109 -50.319332 -23.505774 -77.105125 -15.314995 -37.896412
-16.264748 -39.384533 -23.514236 -76.938522 -18.069447 -49.696232 -1.9268337 64.574013
-23.532385 -76.750259 -15.393557 -37.880524 -2.1329784 64.643066 -17.903425 -49.686611
272434375 -18.709326 -80.700691 -1.9501141 29.790676 -19.453197 -77.148926 -22.945908 -116.26913
-1.9454743 29.785786 -15.979205 -66.055931 -22.991728 -115.92473 -16.774614 -62.652569
-19.454376 -77.179886 -22.995312 -115.97342 -18.743221 -77.195259 -2.0233819 32.645954
-23.047464 -116.31345 -16.843712 -62.648113 -2.22194 32.736958 -16.933159 -64.326027
278682812.5 -22.551065 -101.41664 -1.9723237 -1.9515499 -30.607613 -123.23172 -23.439445 -155.37357
-1.9660094 -1.9442226 -17.250984 -82.22197 -23.402212 -154.63838 -21.63904 -82.165985
-30.601448 -123.01999 -23.413624 -154.53677 -22.441715 -95.470932 -2.0502851 1.0534966
-23.554909 -155.22472 -21.713184 -82.164314 -2.2582819 1.0833998 -17.61994 -81.389877
284931250 -29.961819 -86.262802 -1.9425972 -33.949066 -25.650478 51.198124 -24.468611 171.57565
-1.9360502 -33.959282 -20.762321 -86.179848 -24.356197 172.21289 -29.752178 -20.638021
-25.698694 51.207378 -24.365152 172.19031 -28.721203 -80.164452 -2.0225422 -30.802015
-24.585842 171.70457 -29.812153 -20.714771 -2.2249124 -30.767193 -20.503275 -90.179901
291179687.5 -25.954311 -24.522512 -1.9115247 -66.426743 -18.584698 16.742462 -24.988043 147.49873
-1.9038936 -66.430519 -22.119785 -55.558231 -24.877743 147.26912 -19.410124 0.13652709
-18.595478 16.699638 -24.882423 147.16426 -25.746201 -28.037092 -1.9771818 -63.206837
-25.106789 147.46889 -19.472801 0.16773276 -2.1825414 -63.162926 -23.160408 -67.759644
297428125 -19.593515 -36.591808 -1.967316 -99.080498 -15.907456 -17.107275 -23.767124 120.04227
-1.962512 -99.085289 -18.056744 -49.346828 -23.774984 119.49398 -15.642131 -25.164537
-15.911059 -17.091499 -23.778393 119.61043 -19.791798 -36.174767 -2.0270631 -95.80896
-23.883421 120.03861 -15.721239 -25.18548 -2.2342389 -95.797096 -19.751827 -53.202969
303676562.5 -17.403704 -64.877678 -2.0515654 -131.28033 -16.087112 -54.077061 -22.745825 84.344444
-2.0482614 -131.29115 -16.040373 -63.079945 -22.883614 84.295555 -15.182215 -52.189621
-16.099098 -54.10759 -22.869295 84.212776 -17.599714 -62.872738 -2.1133983 -128.01624
-22.879927 84.229446 -15.248111 -52.217823 -2.3181775 -128.03004 -17.3223 -62.516338
309925000 -18.464949 -94.421967 -2.1195216 -163.25035 -19.875956 -95.126434 -22.404343 46.140369
-2.1111813 -163.25673 -15.730021 -79.608772 -22.538214 46.910393 -17.101295 -76.791626
-19.891666 -95.117203 -22.54476 46.912128 -18.623917 -92.034447 -2.1849554 -159.93939
-22.505596 46.09251 -17.174559 -76.798416 -2.3922789 -159.95273 -16.499655 -77.424858
316173437.5 -23.214388 -115.04015 -2.1414375 164.82867 -32.675926 -177.07535 -22.706703 8.7757711
-2.1379864 164.83078 -17.186094 -95.141068 -22.798277 10.195354 -22.793303 -91.883102
-32.603767 -176.98032 -22.809147 10.229756 -23.318199 -112.17456 -2.2209871 168.29822
-22.836021 8.7319975 -22.865606 -91.815979 -2.433126 168.27214 -17.329735 -92.897415
322421875 -31.340876 -73.418976 -2.1454022 132.85832 -22.405733 42.61116 -23.414331 -25.108822
-2.1376352 132.85345 -20.534502 -97.814697 -23.37463 -23.371248 -27.596291 -21.78904
-22.426872 42.798828 -23.395838 -23.351959 -31.661516 -74.384293 -2.2175477 136.46391
-23.538534 -25.036318 -27.675978 -21.810114 -2.4296746 136.44736 -19.977671 -99.737625
328670312.5 -23.45816 -32.877186 -2.1261075 100.50835 -17.093546 4.8968959 -23.872236 -51.88665
-2.1188936 100.49435 -21.810575 -68.107941 -23.753939 -50.800083 -18.633476 -14.281959
-17.113155 4.890934 -23.736618 -50.897419 -24.084751 -29.49695 -2.1840093 104.17787
-23.993738 -51.870319 -18.713709 -14.28322 -2.4015739 104.1763 -22.290901 -79.086632
334918750 -18.314358 -50.591621 -2.1894689 68.002869 -15.146964 -30.236206 -22.839252 -80.701241
-2.1860902 67.996704 -17.739986 -61.91098 -22.776749 -80.188766 -15.277669 -40.111378
-15.162661 -30.195457 -22.786224 -80.142097 -18.881165 -46.389 -2.2426996 71.701431
-22.966579 -80.770584 -15.355322 -40.150932 -2.4577632 71.697388 -19.104124 -66.463768
