!Keysight Technologies,N5245B,MY57181400,A.12.70.07
!Date: Monday, January 1, 2020 00:00:00
!Correction: S11(Full 16 Port(1,2,3,4,5,6,7,8,9,10,11,12,13,14,15,16)) 
!S12(Full 16 Port(1,2,3,4,5,6,7,8,9,10,11,12,13,14,15,16)) 
!S13(Full 16 Port(1,2,3,4,5,6,7,8,9,10,11,12,13,14,15,16)) 
!S14(Full 16 Port(1,2,3,4,5,6,7,8,9,10,11,12,13,14,15,16)) 
!S21(Full 16 Port(1,2,3,4,5,6,7,8,9,10,11,12,13,14,15,16)) 
!S22(Full 16 Port(1,2,3,4,5,6,7,8,9,10,11,12,13,14,15,16)) 
!S23(Full 16 Port(1,2,3,4,5,6,7,8,9,10,11,12,13,14,15,16)) 
!S24(Full 16 Port(1,2,3,4,5,6,7,8,9,10,11,12,13,14,15,16)) 
!S31(Full 16 Port(1,2,3,4,5,6,7,8,9,10,11,12,13,14,15,16)) 
!S32(Full 16 Port(1,2,3,4,5,6,7,8,9,10,11,12,13,14,15,16)) 
!S33(Full 16 Port(1,2,3,4,5,6,7,8,9,10,11,12,13,14,15,16)) 
!S34(Full 16 Port(1,2,3,4,5,6,7,8,9,10,11,12,13,14,15,16)) 
!S41(Full 16 Port(1,2,3,4,5,6,7,8,9,10,11,12,13,14,15,16)) 
!S42(Full 16 Port(1,2,3,4,5,6,7,8,9,10,11,12,13,14,15,16)) 
!S43(Full 16 Port(1,2,3,4,5,6,7,8,9,10,11,12,13,14,15,16)) 
!S44(Full 16 Port(1,2,3,4,5,6,7,8,9,10,11,12,13,14,15,16)) 
!S4P File: Measurements: <S11,S12,S13,S14>,
!<S21,S22,S23,S24>,
!<S31,S32,S33,S34>,
!<S41,S42,S43,S44>:
# Hz S  dB   R 50
10000000 -22.264248 3.1445651 -0.45921791 -52.479916 -26.116505 23.007322 -34.234631 171.35481
-0.44844496 -52.482941 -22.405779 11.193233 -34.183773 171.16287 -25.591473 36.987049
-26.174627 22.833565 -34.353394 172.4547 -21.818359 5.8483725 -0.46098164 -52.573612
-35.412582 172.38255 -25.748396 36.341858 -0.70653945 -52.650417 -22.285414 8.4453211
16248437.5 -20.953825 -21.764574 -0.59538788 -85.068733 -26.232994 -7.3321981 -32.058197 129.94492
-0.59687167 -85.032867 -20.417759 -6.6511874 -32.002537 129.41255 -24.144896 14.442496
-26.252724 -7.3578391 -32.093445 129.30609 -20.636642 -21.488771 -0.61894011 -85.074875
-32.644955 130.45517 -24.233988 14.524135 -0.83020937 -85.115234 -20.210699 -7.6465926
22496875 -23.897106 -41.859196 -0.69091642 -117.8609 -30.198559 -24.057518 -30.54978 83.798233
-0.69056851 -117.8309 -21.594618 -22.739622 -30.726837 82.872749 -24.563623 -4.3105564
-30.172869 -23.678478 -30.716843 82.505295 -23.597788 -40.766922 -0.69635975 -117.85075
-31.189644 83.610153 -24.643906 -4.3730054 -0.89091748 -117.85392 -21.339363 -23.55158
28745312.5 -27.585991 -46.629856 -0.73130417 -149.37254 -32.792301 -14.388485 -31.676903 24.215799
-0.72947222 -149.39159 -23.812674 -41.929108 -31.807005 22.58065 -27.334974 -27.261021
-32.852928 -14.397328 -31.852192 22.84613 -26.288624 -46.873844 -0.72765023 -149.34467
-32.295803 23.380257 -27.379614 -27.203165 -0.90572828 -149.37402 -23.419127 -44.619598
34993750 -40.463326 13.989379 -0.58864778 177.59285 -34.805664 75.518074 -39.366577 53.173962
-0.59321785 177.59428 -35.758247 5.5121689 -39.494083 52.282188 -34.098816 62.99575
-34.708336 75.690979 -39.505726 52.654423 -41.774651 -18.920998 -0.58505988 177.58636
-39.846973 51.147812 -34.099056 62.970112 -0.75215423 177.52362 -37.683506 -9.7821655
41242187.5 -24.518421 26.177994 -0.71646911 144.42531 -25.135824 39.892342 -31.127293 18.027206
-0.72309327 144.44038 -23.706762 31.34267 -31.294752 16.970406 -23.948252 44.82164
-25.126095 39.796356 -31.292736 17.117527 -24.841686 27.228649 -0.71176487 144.33318
-31.658085 18.265144 -24.009357 44.762104 -0.87473845 144.31769 -24.158562 33.210278
47490625 -21.974457 -5.4695716 -0.85279369 112.09756 -24.147411 3.8122237 -28.883762 -28.12299
-0.85731578 112.08134 -20.406216 10.416312 -29.095034 -29.016058 -21.548517 20.130013
-24.12402 3.7375484 -29.07765 -28.775059 -21.969484 -4.547524 -0.85227317 111.98808
-29.315798 -27.968039 -21.597589 20.272398 -1.0063359 111.96253 -20.524408 11.496508
53739062.5 -23.525997 -31.771561 -0.96703726 80.159752 -27.595617 -23.397579 -27.905821 -74.761406
-0.96761578 80.155571 -19.645714 -10.691224 -28.176172 -75.687119 -21.421083 -2.7302206
-27.574209 -23.454411 -28.101286 -75.490364 -23.153025 -29.829596 -0.95753187 80.070435
-28.263933 -74.768166 -21.463675 -2.7273517 -1.1182936 80.020966 -19.52356 -10.493643
59987500 -26.994997 -34.106323 -1.0121742 48.719383 -33.062359 -6.4817801 -28.286184 -126.51837
-1.0144837 48.730694 -20.641724 -32.277584 -28.56447 -127.55556 -23.234575 -26.196787
-33.029778 -6.3028674 -28.572245 -127.6248 -25.867493 -36.627701 -0.99344254 48.615284
-28.644756 -126.96233 -23.288101 -26.129606 -1.1575576 48.617306 -20.30164 -33.322506
66235937.5 -30.029745 -40.128685 -0.85568345 16.871628 -36.828327 13.254719 -34.465649 -175.24103
-0.8561033 16.881426 -26.186995 -53.74287 -34.870663 -175.18216 -32.796165 -45.489964
-36.839748 13.545921 -34.849812 -175.27866 -29.110056 -51.732861 -0.82976943 16.73571
-34.796383 -174.89801 -32.791344 -45.782711 -0.98948419 16.698769 -25.436253 -56.749268
72484375 -29.070709 34.122818 -0.83910578 -16.694685 -26.534204 61.512856 -32.907742 -143.14584
-0.83994877 -16.690353 -28.132874 23.10989 -33.050293 -143.32552 -26.365566 52.599884
-26.506495 61.209129 -33.105244 -142.83708 -30.685415 39.696766 -0.80898941 -16.932392
-33.31308 -143.18443 -26.404696 52.377052 -0.96396095 -16.931118 -28.873287 19.337713
78732812.5 -22.31098 9.895896 -0.99129939 -49.387012 -22.521996 24.170717 -28.557587 174.63275
-0.9941256 -49.392811 -21.427511 15.272194 -28.735146 173.60352 -21.162291 26.58478
-22.494072 24.235094 -28.728687 174.24222 -22.583838 12.832928 -0.96210176 -49.677525
-28.83317 174.76437 -21.215809 26.573536 -1.1224742 -49.720203 -21.471764 14.507209
84981250 -21.720984 -21.981966 -1.1271732 -81.36454 -23.511829 -11.019412 -27.134237 127.54462
-1.1287844 -81.378021 -19.248833 -5.4941893 -27.358461 127.11909 -19.914227 0.59730464
-23.498135 -11.141808 -27.326788 127.34423 -21.628122 -17.412773 -1.1054344 -81.681404
-27.37344 127.85721 -19.944723 0.72477496 -1.2590696 -81.664642 -18.989708 -6.182004
91229687.5 -24.889948 -40.779976 -1.2013065 -112.84908 -29.196873 -29.024937 -27.034868 79.184959
-1.203874 -112.86275 -19.101492 -26.790613 -27.313051 78.82682 -20.806814 -24.645247
-29.24789 -29.060677 -27.269798 78.81134 -23.805553 -34.52512 -1.1824489 -113.1627
-27.288826 79.212349 -20.829418 -24.718864 -1.3318115 -113.14786 -18.618853 -28.431557
97478125 -27.514399 -36.600098 -1.1361023 -144.28972 -33.860828 3.1194365 -29.302212 29.341543
-1.1359408 -144.26894 -21.330606 -48.844624 -29.643152 29.163235 -24.982069 -50.915936
-33.829681 3.5671453 -29.612513 28.999413 -25.335375 -38.462364 -1.1106968 -144.59547
-29.564941 29.031361 -25.005754 -51.112709 -1.2609646 -144.56071 -20.488094 -52.303188
103726562.5 -33.969246 -18.38365 -0.99007529 -177.06827 -31.505774 65.505386 -35.354839 22.114666
-0.99282187 -177.06206 -28.894968 -41.324017 -35.462498 23.058975 -37.472416 36.251835
-31.468157 65.690277 -35.551117 22.522015 -31.15723 -42.764793 -0.95531726 -177.42699
-35.600235 21.98171 -37.540543 35.942932 -1.10883 -177.39685 -28.067614 -59.565998
109975000 -24.915113 25.155458 -1.0858682 149.67723 -22.723389 46.479599 -29.783421 15.319264
-1.083594 149.69673 -24.224785 9.9530554 -29.92627 14.360782 -22.865061 36.960827
-22.749786 46.536888 -29.935328 14.43246 -26.344496 16.870583 -1.0429419 149.2525
-30.089426 15.321265 -22.941032 36.868816 -1.190876 149.26147 -26.025261 6.7527542
116223437.5 -21.034801 -4.8418183 -1.2400455 117.4932 -21.004555 10.005857 -27.133135 -30.157349
-1.2450264 117.48763 -19.969313 -2.955102 -27.413683 -30.885515 -19.617498 8.4976521
-20.999983 9.9630079 -27.368731 -30.896036 -21.843596 -8.6741343 -1.2044903 116.96188
-27.370668 -30.058849 -19.647858 8.4292355 -1.3535089 116.98292 -20.862106 -2.8548381
122471875 -21.666168 -32.958244 -1.3350456 85.961182 -23.470665 -20.851706 -26.57761 -78.134033
-1.3313293 85.959183 -18.605459 -22.801546 -26.962564 -78.756111 -19.296892 -19.524805
-23.480408 -21.219048 -26.924421 -78.556412 -22.194324 -35.091557 -1.2991869 85.389648
-26.80793 -78.180412 -19.341314 -19.585516 -1.4537388 85.410332 -19.179018 -22.738218
128720312.5 -24.279636 -44.686329 -1.313483 54.542458 -29.512644 -27.436419 -27.7078 -125.44603
-1.3160543 54.516342 -19.135246 -43.129978 -28.104582 -125.20827 -21.454418 -47.464272
-29.56616 -27.198153 -28.068081 -125.55523 -24.641493 -46.769341 -1.2861291 53.979874
-27.939087 -125.5796 -21.493013 -47.62785 -1.4322833 53.980186 -19.581249 -43.834686
134968750 -26.925686 -52.702538 -1.1929424 22.485117 -34.9902 16.086018 -31.554588 -163.60522
-1.1936748 22.484701 -22.184715 -59.296864 -31.945568 -162.00958 -29.236862 -74.203369
-34.990028 16.044849 -31.923542 -162.24213 -27.239031 -55.297958 -1.1607558 21.930256
-31.784327 -163.7627 -29.263308 -74.486038 -1.3074808 21.922424 -22.621178 -61.612274
141217187.5 -34.002506 -7.0129828 -1.1592554 -10.650742 -25.942392 60.735989 -32.552341 -157.33144
-1.1575639 -10.658505 -26.79339 -35.395596 -32.554138 -156.56705 -29.401974 51.006962
-25.923311 60.914333 -32.516365 -156.41422 -34.758804 -4.5415034 -1.1194073 -11.293083
-32.780373 -157.55225 -29.487263 50.663303 -1.2636291 -11.300663 -28.167377 -34.946987
147465625 -24.237461 9.8749571 -1.2958915 -43.311005 -20.663485 30.895508 -28.327271 170.96844
-1.2968572 -43.314926 -22.739113 -13.567657 -28.498356 170.6821 -21.305557 22.882252
-20.647743 30.791725 -28.462061 170.61197 -24.032436 11.255333 -1.2575705 -44.046638
-28.589119 171.00696 -21.383368 22.756651 -1.4058013 -44.042538 -23.085894 -9.1052408
153714062.5 -21.812366 -16.96084 -1.4048251 -75.016129 -20.322609 -2.6560516 -26.997198 124.01305
-1.4084167 -75.019943 -19.996946 -25.366106 -27.281616 123.85231 -19.27902 -6.7720962
-20.330038 -2.8613887 -27.225401 123.56258 -21.295376 -16.305883 -1.3833647 -75.801613
-27.245731 123.77627 -19.332014 -6.9963794 -1.5302399 -75.797913 -19.901466 -21.906612
159962500 -22.828163 -36.042866 -1.4135919 -106.53342 -23.307207 -27.35887 -27.568356 77.985657
-1.4120494 -106.53269 -19.362034 -42.709503 -27.89867 78.055595 -19.866764 -35.229675
-23.347336 -27.43844 -27.859922 77.892738 -21.631449 -36.574966 -1.3930631 -107.28323
-27.846687 77.573807 -19.929203 -35.556969 -1.5424601 -107.28679 -18.914505 -39.563477
166210937.5 -24.565418 -43.871071 -1.3471406 -138.38707 -29.32172 -32.416161 -29.582432 36.894432
-1.3462512 -138.39369 -20.474195 -60.492096 -29.922514 37.359688 -23.366619 -63.818069
-29.345526 -32.00996 -29.913776 36.972347 -22.800261 -49.958591 -1.329044 -139.10194
-29.828943 36.494301 -23.429585 -64.041382 -1.4762681 -139.11661 -19.60894 -58.038155
172459375 -27.846178 -48.024788 -1.2700822 -170.87602 -33.30798 40.814644 -33.013817 12.982339
-1.267047 -170.87689 -24.336351 -70.906227 -33.330013 15.14284 -38.487263 -86.86895
-33.266518 40.600491 -33.325401 14.757685 -25.771227 -64.614937 -1.2415687 -171.58733
-33.293922 12.517288 -38.578468 -87.569069 -1.3873762 -171.60262 -22.681635 -71.456741
178707812.5 -28.679077 -1.6883991 -1.3003005 156.22284 -23.09128 48.345455 -31.653376 7.8909559
-1.3011873 156.22256 -27.810148 -35.246754 -31.694607 9.1956882 -25.717773 45.794132
-23.108356 48.295769 -31.713261 8.887043 -31.447847 -27.300716 -1.263577 155.42401
-31.929974 7.4877982 -25.83058 45.765545 -1.410114 155.42906 -26.73188 -50.182602
184956250 -22.854387 -5.160315 -1.4131209 123.99152 -19.526451 18.571064 -28.995129 -28.906214
-1.4144584 123.99157 -23.115334 -19.951996 -29.084984 -28.443911 -20.384817 14.92839
-19.536722 18.49383 -29.067677 -28.652409 -24.646852 -8.0587931 -1.3787463 123.07983
-29.253422 -29.532785 -20.461464 14.787829 -1.5299748 123.06757 -23.519791 -28.563187
191204687.5 -21.234068 -25.649576 -1.4552342 92.290344 -19.571091 -10.891636 -28.730688 -72.644554
-1.4564826 92.290764 -20.614506 -31.445122 -28.80772 -71.973274 -19.164843 -13.88289
-19.591768 -10.920728 -28.827192 -72.299835 -22.059521 -24.908649 -1.4323798 91.334862
-29.025965 -73.224274 -19.245588 -14.063291 -1.5855514 91.331436 -20.881445 -36.142921
197453125 -21.563721 -43.411217 -1.428758 60.431042 -22.166788 -35.874435 -29.776167 -112.1078
-1.4304316 60.419811 -19.956741 -47.312866 -29.870672 -111.20599 -20.408806 -41.311607
-22.212034 -35.806263 -29.872284 -111.62553 -21.70019 -41.437534 -1.4126525 59.476948
-30.120718 -112.62408 -20.499033 -41.497917 -1.5657234 59.481262 -19.904137 -51.485641
203701562.5 -23.482388 -58.269791 -1.3825009 28.236551 -29.332676 -50.158993 -31.76058 -144.55356
-1.3843603 28.241198 -21.152437 -63.610153 -31.705196 -143.62735 -25.333014 -65.855515
-29.351028 -49.92955 -31.737782 -143.85777 -22.680763 -55.955963 -1.3692473 27.327164
-32.06974 -144.94011 -25.435303 -66.12812 -1.5185807 27.339085 -20.670792 -69.369217
209950000 -28.435163 -59.22908 -1.3506144 -4.3212223 -31.273417 53.73468 -33.436745 -159.88509
-1.3520057 -4.3356714 -24.984165 -68.342438 -33.224064 -160.66782 -38.031349 21.977463
-31.281017 53.609688 -33.223034 -160.90656 -25.736992 -63.012753 -1.3308344 -5.216547
-33.775524 -160.31633 -38.150787 23.030779 -1.4792305 -5.1917701 -24.069681 -82.25489
216198437.5 -27.939699 -5.4086933 -1.3969595 -36.992599 -21.688931 40.797962 -31.299002 -176.17714
-1.4016306 -36.988243 -26.486731 -31.625534 -31.281572 -178.63528 -22.864914 32.754822
-21.706841 40.824596 -31.311886 -178.76407 -27.749277 -34.375458 -1.3674353 -37.953053
-31.565054 -176.34515 -22.956751 32.884983 -1.5082681 -37.923668 -28.818609 -55.806709
222446875 -21.958418 -9.289567 -1.4841502 -69.202225 -18.657961 11.466305 -29.289963 147.32704
-1.4848181 -69.201698 -21.88476 -22.758886 -29.504845 145.14636 -18.939735 4.6811299
-18.677868 11.453927 -29.541399 144.75974 -23.376453 -25.949409 -1.450979 -70.235359
-29.583694 147.10207 -19.013063 4.6413875 -1.5990131 -70.217445 -24.865648 -28.277634
228695312.5 -19.645594 -30.181967 -1.5238937 -101.08579 -18.705896 -18.353172 -28.874184 107.13053
-1.5265564 -101.08105 -19.248861 -35.644592 -29.293406 105.11432 -18.260094 -23.45314
-18.710581 -18.301105 -29.328869 105.26566 -21.183828 -43.064266 -1.4932675 -102.19413
-29.201069 106.95439 -18.347862 -23.569679 -1.6454201 -102.14359 -21.698145 -35.14909
234943750 -19.530727 -52.522385 -1.5180831 -133.03816 -21.713144 -46.563931 -29.478138 70.135223
-1.518201 -133.05641 -18.461834 -53.172272 -30.079569 69.185226 -20.134624 -50.078438
-21.735846 -46.489838 -30.088701 69.289566 -21.384752 -64.849426 -1.4884877 -134.18611
-29.778591 70.189537 -20.233961 -50.102341 -1.6368018 -134.1501 -20.561144 -49.480019
241192187.5 -21.507318 -72.134918 -1.4951227 -165.26271 -32.137569 -60.559696 -30.555094 38.969963
-1.4945198 -165.26241 -19.392075 -70.923248 -31.221952 41.024849 -26.402491 -69.172142
-32.138943 -60.143013 -31.231417 40.988056 -24.172071 -83.435585 -1.4717059 -166.4066
-30.841469 39.04884 -26.496544 -69.328972 -1.6173701 -166.39111 -21.271286 -63.945053
247440625 -26.167801 -77.350914 -1.4859233 162.26791 -26.831802 54.694378 -31.05703 17.978287
-1.4865111 162.26628 -22.577944 -79.906059 -31.306377 21.353958 -30.615633 28.916805
-26.82765 54.64389 -31.368143 21.468271 -31.077045 -82.418442 -1.4596639 161.06892
-31.343475 17.735189 -30.731041 28.838442 -1.6064968 161.10036 -23.996202 -66.31427
253689062.5 -27.87184 -33.61834 -1.53355 129.71779 -19.576025 31.21501 -29.442127 -6.2146688
-1.5410416 129.70363 -25.2694 -57.166374 -29.394085 -3.5186248 -20.513309 19.398645
-19.590168 31.175476 -29.428123 -3.8106911 -28.78747 -6.5980349 -1.5095073 128.46295
-29.738447 -5.9864407 -20.586176 19.312624 -1.6524366 128.47292 -24.509592 -42.715099
259937500 -22.355745 -28.29607 -1.6202958 97.538651 -17.188101 1.0326712 -27.921017 -42.666996
-1.6216218 97.53093 -22.258675 -41.165859 -27.850456 -41.259396 -17.387806 -8.51019
-17.207499 0.98757875 -27.863579 -41.441559 -22.130278 -18.7922 -1.5989436 96.239616
-28.236965 -42.499184 -17.455172 -8.5108871 -1.7412786 96.274963 -21.180279 -39.10899
266185937.5 -20.066587 -48.428436 -1.664026 65.661163 -17.65176 -29.905247 -27.627787 -81.986351
-1.6605438 65.657608 -19.817083 -48.74509 -27.543211 -81.183113 -17.127235 -36.75312
-17.661791 -29.885084 -27.571945 -81.402489 -19.959358 -43.692516 -1.6484352 64.377907
-27.936493 -82.238686 -17.197489 -36.743546 -1.7919372 64.403221 -19.237698 -50.976021
272434375 -20.55757 -71.845673 -1.6555645 33.684109 -21.482489 -59.161678 -28.161806 -118.19456
-1.6576391 33.686386 -19.065527 -63.275589 -28.12801 -117.8782 -19.391819 -63.524448
-21.497217 -59.174412 -28.148127 -117.91245 -20.494322 -68.086868 -1.6437484 32.394333
-28.482252 -118.12981 -19.468676 -63.481403 -1.7799383 32.466057 -18.829832 -67.160492
278682812.5 -24.024708 -88.796715 -1.6408086 1.4395193 -36.289822 -55.205292 -28.969627 -148.00444
-1.642622 1.452018 -20.130167 -77.490875 -28.933725 -148.17043 -26.608812 -81.467064
-36.347313 -54.788792 -28.93504 -148.16402 -23.775385 -84.909142 -1.6186439 0.17029639
-29.259281 -148.06149 -26.678961 -81.602272 -1.7598878 0.18681154 -20.19618 -82.78537
284931250 -30.528309 -65.787849 -1.6511537 -31.042315 -23.648294 42.784744 -28.808687 -171.67879
-1.6520989 -31.042383 -23.124281 -78.681786 -28.801609 -171.97089 -28.224255 21.065022
-23.639328 42.794697 -28.815409 -172.42879 -29.706423 -64.666946 -1.6226534 -32.360649
-29.135296 -171.69029 -28.284172 21.212788 -1.7613583 -32.345707 -23.887941 -84.11219
291179687.5 -25.013639 -20.322206 -1.7235504 -63.497242 -17.925648 16.76 -27.266018 159.5927
-1.7255293 -63.490395 -23.621216 -53.977646 -27.316959 158.68266 -19.33536 5.9402604
-17.9335 16.780109 -27.306887 158.63472 -24.715717 -22.041021 -1.6894685 -64.935875
-27.529692 159.54337 -19.406303 5.9300222 -1.8314469 -64.898506 -24.461409 -51.978764
297428125 -20.037676 -35.491497 -1.8185633 -95.496979 -16.14612 -13.733702 -25.999447 120.66778
-1.8175242 -95.506798 -20.415133 -48.107582 -26.111204 119.9598 -16.601845 -22.272789
-16.149805 -13.705735 -26.115095 119.99811 -19.840384 -36.927692 -1.7968426 -96.970642
-26.286207 120.71652 -16.66814 -22.350216 -1.9395255 -96.984299 -20.502226 -46.574547
303676562.5 -18.446409 -60.628395 -1.8555101 -127.17692 -17.119106 -45.201035 -25.9433 79.419296
-1.8587267 -127.175 -18.311394 -58.555958 -26.092609 78.996033 -16.620003 -50.669075
-17.130888 -45.2099 -26.087597 79.042984 -18.303186 -61.921299 -1.8420589 -128.65862
-26.189327 79.506569 -16.69211 -50.727276 -1.9838933 -128.68085 -18.244831 -58.585995
309925000 -19.368811 -86.269035 -1.8339202 -159.02516 -21.872322 -75.391724 -26.820723 41.679008
-1.8337158 -159.03946 -17.666138 -73.533432 -26.967934 41.805519 -19.220804 -77.495964
-21.881439 -75.479507 -26.986387 41.864807 -19.302124 -87.445435 -1.8211433 -160.51636
-27.091471 41.595478 -19.303621 -77.514023 -1.9620415 -160.52916 -17.636902 -74.774597
316173437.5 -23.244291 -105.94907 -1.8035508 168.69794 -42.819656 -3.7927213 -27.957418 11.94526
-1.8063351 168.68085 -18.662655 -87.988861 -28.085037 12.386581 -27.354795 -92.925087
-42.869747 -3.7528689 -28.106106 12.349551 -23.209265 -106.44543 -1.7825683 167.26045
-28.23214 11.738091 -27.394733 -92.93351 -1.9269379 167.22095 -18.753643 -89.916313
322421875 -31.192997 -82.719902 -1.8227551 136.22539 -21.554127 32.375916 -27.973225 -12.069513
-1.825816 136.21637 -21.085339 -91.471481 -27.972553 -11.779005 -26.753359 9.4964924
-21.557947 32.440525 -28.026632 -11.775033 -31.418522 -83.028748 -1.7945602 134.73508
-28.281052 -12.085603 -26.840664 9.5233793 -1.9402575 134.71014 -21.506367 -92.686516
328670312.5 -25.228809 -30.627089 -1.8898423 103.88502 -16.889702 4.3934417 -26.787977 -40.41613
-1.8908978 103.88038 -22.198689 -74.865219 -26.780735 -40.455292 -18.78997 -7.7199435
-16.902369 4.4088502 -26.791506 -40.4673 -25.020605 -28.515427 -1.8569068 102.27891
-27.062773 -40.587147 -18.865328 -7.7311125 -2.0069785 102.27213 -22.49127 -72.271339
334918750 -20.095253 -45.414543 -1.9727547 71.93882 -15.565628 -25.945589 -25.584957 -77.961617
-1.97428 71.928017 -19.926327 -67.055916 -25.615944 -77.753487 -16.306896 -36.2397
-15.574844 -25.971889 -25.621807 -77.810532 -19.854534 -44.357983 -1.9496791 70.263092
-25.868528 -77.923347 -16.375061 -36.285286 -2.1000953 70.256676 -19.689722 -65.940842
