# HZ S RI R 50
2.00000000000e+007 -1.52883057474e-004 -1.61812627306e-003 +9.92389641172e-001 -3.98883314376e-002 +9.92389641172e-001 -3.98883314376e-002 -2.09343564865e-004 -1.60312097288e-003
4.00000000000e+007 -3.11763329716e-004 -3.22347539111e-003 +9.87012184736e-001 -7.94724530770e-002 +9.87012184736e-001 -7.94724530770e-002 -5.35386834933e-004 -3.16886452652e-003
6.00000000000e+007 -5.30391898798e-004 -4.81414279461e-003 +9.80684806294e-001 -1.18764476750e-001 +9.80684806294e-001 -1.18764476750e-001 -1.02835341114e-003 -4.68571329957e-003
8.00000000000e+007 -8.12606072286e-004 -6.38665672230e-003 +9.73117952542e-001 -1.57728303118e-001 +9.73117952542e-001 -1.57728303118e-001 -1.68767259659e-003 -6.13870301104e-003
1.00000000000e+008 -1.15878704007e-003 -7.93728004824e-003 +9.64209670409e-001 -1.96317062529e-001 +9.64209670409e-001 -1.96317062529e-001 -2.50828870690e-003 -7.51254854026e-003
1.20000000000e+008 -1.56805762485e-003 -9.46224874036e-003 +9.53917200751e-001 -2.34479528034e-001 +9.53917200751e-001 -2.34479528034e-001 -3.48284310439e-003 -8.79226607237e-003
1.40000000000e+008 -2.03884644426e-003 -1.09578715574e-002 +9.42224315053e-001 -2.72162480422e-001 +9.42224315053e-001 -2.72162480422e-001 -4.60226178538e-003 -9.96346795461e-003
1.60000000000e+008 -2.56910152042e-003 -1.24205874828e-002 +9.29129380483e-001 -3.09311855261e-001 +9.29129380483e-001 -3.09311855261e-001 -5.85601264720e-003 -1.10125560730e-002
1.80000000000e+008 -3.15639395740e-003 -1.38470055590e-002 +9.14640029756e-001 -3.45873401173e-001 +9.14640029756e-001 -3.45873401173e-001 -7.23226632468e-003 -1.19268708832e-002
2.00000000000e+008 -3.79797937935e-003 -1.52339356719e-002 +8.98770441120e-001 -3.81793105716e-001 +8.98770441120e-001 -3.81793105716e-001 -8.71802511388e-003 -1.26948155339e-002
2.20000000000e+008 -4.49084102876e-003 -1.65784138104e-002 +8.81539806608e-001 -4.17017497074e-001 +8.81539806608e-001 -4.17017497074e-001 -1.02992420291e-002 -1.33059628342e-002
2.40000000000e+008 -5.23172430690e-003 -1.78777234213e-002 +8.62971398768e-001 -4.51493873295e-001 +8.62971398768e-001 -4.51493873295e-001 -1.19609384865e-002 -1.37511484228e-002
2.60000000000e+008 -6.01716718612e-003 -1.91294136621e-002 +8.43091962549e-001 -4.85170486073e-001 +8.43091962549e-001 -4.85170486073e-001 -1.36873240175e-002 -1.40225516409e-002
2.80000000000e+008 -6.84352863784e-003 -2.03313149630e-002 +8.21931294518e-001 -5.17996694246e-001 +8.21931294518e-001 -5.17996694246e-001 -1.54619192554e-002 -1.41137647506e-002
3.00000000000e+008 -7.70701615115e-003 -2.14815521197e-002 +7.99521935145e-001 -5.49923095956e-001 +7.99521935145e-001 -5.49923095956e-001 -1.72676824342e-002 -1.40198507384e-002
3.20000000000e+008 -8.60371287822e-003 -2.25785550324e-002 +7.75898931913e-001 -5.80901645018e-001 +7.75898931913e-001 -5.80901645018e-001 -1.90871391280e-002 -1.37373897510e-002
3.40000000000e+008 -9.52960465546e-003 -2.36210671578e-002 +7.51099648143e-001 -6.10885755073e-001 +7.51099648143e-001 -6.10885755073e-001 -2.09025146894e-002 -1.32645141348e-002
3.60000000000e+008 -1.04806069876e-002 -2.46081517126e-002 +7.25163602067e-001 -6.39830393860e-001 +7.25163602067e-001 -6.39830393860e-001 -2.26958686895e-002 -1.26009320319e-002
3.80000000000e+008 -1.14525919880e-002 -2.55391956560e-002 +6.98132326302e-001 -6.67692169245e-001 +6.98132326302e-001 -6.67692169245e-001 -2.44492305733e-002 -1.17479395046e-002
4.00000000000e+008 -1.24414152124e-002 -2.64139114756e-002 +6.70049241317e-001 -6.94429408133e-001 +6.70049241317e-001 -6.94429408133e-001 -2.61447356942e-002 -1.07084211976e-002
4.20000000000e+008 -1.34429422883e-002 -2.72323368051e-002 +6.40959538618e-001 -7.20002229065e-001 +6.40959538618e-001 -7.20002229065e-001 -2.77647608614e-002 -9.48683959635e-003
4.40000000000e+008 -1.44530752216e-002 -2.79948319080e-002 +6.10910070763e-001 -7.44372609128e-001 +6.10910070763e-001 -7.44372609128e-001 -2.92920585264e-002 -8.08921299938e-003
4.60000000000e+008 -1.54677782517e-002 -2.87020750679e-002 +5.79949246205e-001 -7.67504445616e-001 +5.79949246205e-001 -7.67504445616e-001 -3.07098887303e-002 -6.52308238013e-003
4.80000000000e+008 -1.64831031169e-002 -2.93550559379e-002 +5.48126927606e-001 -7.89363612807e-001 +5.48126927606e-001 -7.89363612807e-001 -3.20021479495e-002 -4.79746737816e-003
5.00000000000e+008 -1.74952135929e-002 -2.99550669098e-002 +5.15494332622e-001 -8.09918014148e-001 +5.15494332622e-001 -8.09918014148e-001 -3.31534939894e-002 -2.92281172162e-003
5.20000000000e+008 -1.85004091662e-002 -3.05036925730e-002 +4.82103936516e-001 -8.29137630080e-001 +4.82103936516e-001 -8.29137630080e-001 -3.41494661036e-002 -9.10918444547e-004
5.40000000000e+008 -1.94951477072e-002 -3.10027973450e-002 +4.48009376076e-001 -8.46994561695e-001 +4.48009376076e-001 -8.46994561695e-001 -3.49765995429e-002 +1.22512467695e-003
5.60000000000e+008 -2.04760670136e-002 -3.14545113638e-002 +4.13265354536e-001 -8.63463070421e-001 +4.13265354536e-001 -8.63463070421e-001 -3.56225337768e-002 +3.47102898769e-003
5.80000000000e+008 -2.14400050994e-002 -3.18612147410e-002 +3.77927547231e-001 -8.78519613854e-001 +3.77927547231e-001 -8.78519613854e-001 -3.60761136646e-002 +5.81139757828e-003
6.00000000000e+008 -2.23840191131e-002 -3.22255202854e-002 +3.42052507828e-001 -8.92142877894e-001 +3.42052507828e-001 -8.92142877894e-001 -3.63274829028e-002 +8.22982608232e-003
6.20000000000e+008 -2.33054027755e-002 -3.25502548129e-002 +3.05697575015e-001 -9.04313805295e-001 +3.05697575015e-001 -9.04313805295e-001 -3.63681691180e-002 +1.07090110071e-002
6.40000000000e+008 -2.42017022390e-002 -3.28384391675e-002 +2.68920779548e-001 -9.15015620737e-001 +2.68920779548e-001 -9.15015620737e-001 -3.61911600277e-002 +1.32308649144e-002
6.60000000000e+008 -2.50707302759e-002 -3.30932670831e-002 +2.31780751622e-001 -9.24233852513e-001 +2.31780751622e-001 -9.24233852513e-001 -3.57909701466e-002 +1.57766377255e-002
6.80000000000e+008 -2.59105787172e-002 -3.33180830248e-002 +1.94336628502e-001 -9.31956350917e-001 +1.94336628502e-001 -9.31956350917e-001 -3.51636975694e-002 +1.83270433880e-002
7.00000000000e+008 -2.67196290722e-002 -3.35163591510e-002 +1.56647962390e-001 -9.38173303407e-001 +1.56647962390e-001 -9.38173303407e-001 -3.43070704243e-002 +2.08623911089e-002
7.20000000000e+008 -2.74965612695e-002 -3.36916715428e-002 +1.18774628530e-001 -9.42877246602e-001 +1.18774628530e-001 -9.42877246602e-001 -3.32204826496e-002 +2.33627203277e-002
7.40000000000e+008 -2.82403604725e-002 -3.38476758523e-002 +8.07767335026e-002 -9.46063075172e-001 +8.07767335026e-002 -9.46063075172e-001 -3.19050188124e-002 +2.58079385820e-002
7.60000000000e+008 -2.89503219346e-002 -3.39880825217e-002 +4.27145237345e-002 -9.47728047648e-001 +4.27145237345e-002 -9.47728047648e-001 -3.03634677502e-002 +2.81779613951e-002
7.80000000000e+008 -2.96260538685e-002 -3.41166317290e-002 +4.64829420659e-003 -9.47871789203e-001 +4.64829420659e-003 -9.47871789203e-001 -2.86003248859e-002 +3.04528533017e-002
8.00000000000e+008 -3.02674783183e-002 -3.42370682171e-002 -3.33617026348e-002 -9.46496291406e-001 -3.33617026348e-002 -9.46496291406e-001 -2.66217831300e-002 +3.26129691160e-002
8.20000000000e+008 -3.08748300343e-002 -3.43531161624e-002 -7.12553477539e-002 -9.43605908972e-001 -7.12553477539e-002 -9.43605908972e-001 -2.44357123565e-002 +3.46390945426e-002
8.40000000000e+008 -3.14486533612e-002 -3.44684542380e-002 -1.08972746174e-001 -9.39207353494e-001 -1.08972746174e-001 -9.39207353494e-001 -2.20516275045e-002 +3.65125852271e-002
8.60000000000e+008 -3.19897971630e-002 -3.45866910289e-002 -1.46454317383e-001 -9.33309684161e-001 -1.46454317383e-001 -9.33309684161e-001 -1.94806454258e-002 +3.82155033492e-002
8.80000000000e+008 -3.24994078210e-002 -3.47113409481e-002 -1.83640885461e-001 -9.25924295438e-001 -1.83640885461e-001 -9.25924295438e-001 -1.67354306701e-002 +3.97307508697e-002
9.00000000000e+008 -3.29789203489e-002 -3.48458008058e-002 -2.20473768903e-001 -9.17064901673e-001 -2.20473768903e-001 -9.17064901673e-001 -1.38301304654e-002 +4.10421985545e-002
9.20000000000e+008 -3.34300476859e-002 -3.49933271744e-002 -2.56894870093e-001 -9.06747518615e-001 -2.56894870093e-001 -9.06747518615e-001 -1.07802992185e-002 +4.21348099221e-002
9.40000000000e+008 -3.38547682329e-002 -3.51570146923e-002 -2.92846764368e-001 -8.94990441782e-001 -2.92846764368e-001 -8.94990441782e-001 -7.60281292749e-003 +4.29947592784e-002
9.60000000000e+008 -3.42553117149e-002 -3.53397754394e-002 -3.28272788619e-001 -8.81814221648e-001 -3.28272788619e-001 -8.81814221648e-001 -4.31577396277e-003 +4.36095430378e-002
9.80000000000e+008 -3.46341434561e-002 -3.55443195144e-002 -3.63117129338e-001 -8.67241635597e-001 -3.63117129338e-001 -8.67241635597e-001 -9.38406735831e-004 +4.39680835579e-002
1.00000000000e+009 -3.49939471698e-002 -3.57731369336e-002 -3.97324910051e-001 -8.51297656589e-001 -3.97324910051e-001 -8.51297656589e-001 +2.50905516453e-003 +4.40608247574e-002
1.02000000000e+009 -3.53376063693e-002 -3.60284809670e-002 -4.30842278002e-001 -8.34009418492e-001 -4.30842278002e-001 -8.34009418492e-001 +6.00548972981e-003 +4.38798188266e-002
1.04000000000e+009 -3.56681845197e-002 -3.63123530145e-002 -4.63616490006e-001 -8.15406178025e-001 -4.63616490006e-001 -8.15406178025e-001 +9.52901448967e-003 +4.34188033915e-002
1.06000000000e+009 -3.59889040543e-002 -3.66264891193e-002 -4.95595997334e-001 -7.95519273270e-001 -4.95595997334e-001 -7.95519273270e-001 +1.30571209244e-002 +4.26732685413e-002
1.08000000000e+009 -3.63031243891e-002 -3.69723482035e-002 -5.26730529481e-001 -7.74382078706e-001 -5.26730529481e-001 -7.74382078706e-001 +1.65668145375e-002 +4.16405131874e-002
1.10000000000e+009 -3.66143190758e-002 -3.73511021011e-002 -5.56971176696e-001 -7.52029956728e-001 -5.56971176696e-001 -7.52029956728e-001 +2.00347597506e-002 +4.03196902846e-002
1.12000000000e+009 -3.69260522375e-002 -3.77636274535e-002 -5.86270471075e-001 -7.28500205627e-001 -5.86270471075e-001 -7.28500205627e-001 +2.34374287416e-002 +3.87118405055e-002
1.14000000000e+009 -3.72419544380e-002 -3.82104995181e-002 -6.14582466076e-001 -7.03832004012e-001 -6.14582466076e-001 -7.03832004012e-001 +2.67512533131e-002 +3.68199140318e-002
1.16000000000e+009 -3.75656981398e-002 -3.86919879327e-002 -6.41862814250e-001 -6.78066351661e-001 -6.41862814250e-001 -6.78066351661e-001 +2.99527788475e-002 +3.46487801960e-002
1.18000000000e+009 -3.79009729079e-002 -3.92080544618e-002 -6.68068843001e-001 -6.51246006816e-001 -6.68068843001e-001 -6.51246006816e-001 +3.30188193819e-002 +3.22052247801e-002
1.20000000000e+009 -3.82514605192e-002 -3.97583527421e-002 -6.93159628182e-001 -6.23415419936e-001 -6.93159628182e-001 -6.23415419936e-001 +3.59266128158e-002 +2.94979348575e-002
1.22000000000e+009 -3.86208101398e-002 -4.03422300273e-002 -7.17096065300e-001 -5.94620663952e-001 -7.17096065300e-001 -5.94620663952e-001 +3.86539752529e-002 +2.65374711406e-002
1.24000000000e+009 -3.90126137290e-002 -4.09587309247e-002 -7.39840938138e-001 -5.64909361063e-001 -7.39840938138e-001 -5.64909361063e-001 +4.11794534745e-002 +2.33362278794e-002
1.26000000000e+009 -3.94303818329e-002 -4.16066030967e-002 -7.61358984555e-001 -5.34330606167e-001 -7.61358984555e-001 -5.34330606167e-001 +4.34824745367e-002 +1.99083804352e-002
1.28000000000e+009 -3.98775199238e-002 -4.22843048929e-002 -7.81616959267e-001 -5.02934886996e-001 -7.81616959267e-001 -5.02934886996e-001 +4.55434914998e-002 +1.62698207385e-002
1.30000000000e+009 -4.03573054411e-002 -4.29900148621e-002 -8.00583693378e-001 -4.70774001075e-001 -8.00583693378e-001 -4.70774001075e-001 +4.73441243020e-002 +1.24380809172e-002
1.32000000000e+009 -4.08728656847e-002 -4.37216430814e-002 -8.18230150448e-001 -4.37900969634e-001 -8.18230150448e-001 -4.37900969634e-001 +4.88672948213e-002 +8.43224546869e-003
1.34000000000e+009 -4.14271567051e-002 -4.44768442291e-002 -8.34529478897e-001 -4.04369948616e-001 -8.34529478897e-001 -4.04369948616e-001 +5.00973551877e-002 +4.27285242089e-003
1.36000000000e+009 -4.20229433306e-002 -4.52530323131e-002 -8.49457060523e-001 -3.70236136958e-001 -8.49457060523e-001 -3.70236136958e-001 +5.10202084509e-002 -1.82159876366e-005
1.38000000000e+009 -4.26627804628e-002 -4.60473969581e-002 -8.62990554968e-001 -3.35555682323e-001 -8.62990554968e-001 -3.35555682323e-001 +5.16234207444e-002 -4.41785250942e-003
1.40000000000e+009 -4.33489957621e-002 -4.68569211423e-002 -8.75109939922e-001 -3.00385584492e-001 -8.75109939922e-001 -3.00385584492e-001 +5.18963241379e-002 -8.90185329803e-003
1.42000000000e+009 -4.40836738399e-002 -4.76784002643e-002 -8.85797546913e-001 -2.64783596645e-001 -8.85797546913e-001 -2.64783596645e-001 +5.18301094235e-002 -1.34450547862e-002
1.44000000000e+009 -4.48686420573e-002 -4.85084624133e-002 -8.95038092521e-001 -2.28808124753e-001 -8.95038092521e-001 -2.28808124753e-001 +5.14179081421e-002 -1.80214782288e-002
1.46000000000e+009 -4.57054580271e-002 -4.93435897049e-002 -9.02818704882e-001 -1.92518125357e-001 -9.02818704882e-001 -1.92518125357e-001 +5.06548632201e-002 -2.26044810506e-002
1.48000000000e+009 -4.65953988962e-002 -5.01801405398e-002 -9.09128945366e-001 -1.55973001987e-001 -9.09128945366e-001 -1.55973001987e-001 +4.95381876604e-002 -2.71669140836e-002
1.50000000000e+009 -4.75394524791e-002 -5.10143726348e-002 -9.13960825320e-001 -1.19232500498e-001 -9.13960825320e-001 -1.19232500498e-001 +4.80672108041e-002 -3.16812837374e-002
1.52000000000e+009 -4.85383102979e-002 -5.18424666713e-002 -9.17308817815e-001 -8.23566036211e-002 -9.17308817815e-001 -8.23566036211e-002 +4.62434117604e-002 -3.61199181006e-002
1.54000000000e+009 -4.95923625703e-002 -5.26605504004e-002 -9.19169864325e-001 -4.54054250205e-002 -9.19169864325e-001 -4.54054250205e-002 +4.40704396846e-002 -4.04551359440e-002
1.56000000000e+009 -5.07016951752e-002 -5.34647230453e-002 -9.19543376324e-001 -8.43910315141e-003 -9.19543376324e-001 -8.43910315141e-003 +4.15541206688e-002 -4.46594175673e-002
1.58000000000e+009 -5.18660886102e-002 -5.42510798336e-002 -9.18431231775e-001 +2.84823047685e-002 -9.18431231775e-001 +2.84823047685e-002 +3.87024510980e-002 -4.87055764138e-002
1.60000000000e+009 -5.30850189427e-002 -5.50157364972e-002 -9.15837766542e-001 +6.52989283757e-002 -9.15837766542e-001 +6.52989283757e-002 +3.55255774120e-002 -5.25669303682e-002
1.62000000000e+009 -5.43576607408e-002 -5.57548535766e-002 -9.11769760763e-001 +1.01951189063e-001 -9.11769760763e-001 +1.01951189063e-001 +3.20357623053e-002 -5.62174716481e-002
1.64000000000e+009 -5.56828919586e-002 -5.64646603654e-002 -9.06236420234e-001 +1.38379903865e-001 -9.06236420234e-001 +1.38379903865e-001 +2.82473374826e-002 -5.96320342070e-002
1.66000000000e+009 -5.70593007347e-002 -5.71414783392e-002 -8.99249352913e-001 +1.74526388049e-001 -8.99249352913e-001 +1.74526388049e-001 +2.41766431793e-002 -6.27864575754e-002
1.68000000000e+009 -5.84851940521e-002 -5.77817439137e-002 -8.90822540637e-001 +2.10332556106e-001 -8.90822540637e-001 +2.10332556106e-001 +1.98419547411e-002 -6.56577460920e-002
1.70000000000e+009 -5.99586081919e-002 -5.83820303825e-002 -8.80972306193e-001 +2.45741020897e-001 -8.80972306193e-001 +2.45741020897e-001 +1.52633966426e-002 -6.82242224991e-002
1.72000000000e+009 -6.14773209052e-002 -5.89390688940e-002 -8.69717275881e-001 +2.80695190676e-001 -8.69717275881e-001 +2.80695190676e-001 +1.04628444055e-002 -7.04656749135e-002
1.74000000000e+009 -6.30388652127e-002 -5.94497683321e-002 -8.57078337758e-001 +3.15139363763e-001 -8.57078337758e-001 +3.15139363763e-001 +5.46381495661e-003 -7.23634962259e-002
1.76000000000e+009 -6.46405447322e-002 -5.99112339736e-002 -8.43078595737e-001 +3.49018820624e-001 -8.43078595737e-001 +3.49018820624e-001 +2.91346037495e-004 -7.39008150257e-002
1.78000000000e+009 -6.62794504260e-002 -6.03207848072e-002 -8.27743319739e-001 +3.82279913168e-001 -8.27743319739e-001 +3.82279913168e-001 -5.02813464903e-003 -7.50626172054e-002
1.80000000000e+009 -6.79524786480e-002 -6.06759694057e-002 -8.11099892125e-001 +4.14870151053e-001 -8.11099892125e-001 +4.14870151053e-001 -1.04669498097e-002 -7.58358574541e-002
1.82000000000e+009 -6.96563503652e-002 -6.09745802560e-002 -7.93177750629e-001 +4.46738284857e-001 -7.93177750629e-001 +4.46738284857e-001 -1.59963216410e-002 -7.62095599141e-002
1.84000000000e+009 -7.13876314211e-002 -6.12146664620e-002 -7.74008328017e-001 +4.77834385939e-001 -7.74008328017e-001 +4.77834385939e-001 -2.15865287596e-002 -7.61749073421e-002
1.86000000000e+009 -7.31427537007e-002 -6.13945447462e-002 -7.53624988730e-001 +5.08109922891e-001 -7.53624988730e-001 +5.08109922891e-001 -2.72070700743e-002 -7.57253181869e-002
1.88000000000e+009 -7.49180370545e-002 -6.15128086903e-002 -7.32062962741e-001 +5.37517834458e-001 -7.32062962741e-001 +5.37517834458e-001 -3.28268346527e-002 -7.48565110708e-002
1.90000000000e+009 -7.67097118334e-002 -6.15683361650e-002 -7.09359276882e-001 +5.66012598859e-001 -7.09359276882e-001 +5.66012598859e-001 -3.84142765971e-002 -7.35665562367e-002
1.92000000000e+009 -7.85139418844e-002 -6.15602949125e-002 -6.85552683874e-001 +5.93550299441e-001 -6.85552683874e-001 +5.93550299441e-001 -4.39375939208e-002 -7.18559136041e-002
1.94000000000e+009 -8.03268478565e-002 -6.14881462590e-002 -6.60683589328e-001 +6.20088686628e-001 -6.60683589328e-001 +6.20088686628e-001 -4.93649103890e-002 -6.97274571527e-002
1.96000000000e+009 -8.21445306629e-002 -6.13516469438e-002 -6.34793976928e-001 +6.45587236155e-001 -6.34793976928e-001 +6.45587236155e-001 -5.46644592779e-002 -6.71864854379e-002
1.98000000000e+009 -8.39630949496e-002 -6.11508490680e-002 -6.07927332038e-001 +6.70007203580e-001 -6.07927332038e-001 +6.70007203580e-001 -5.98047679926e-002 -6.42407181192e-002
2.00000000000e+009 -8.57786724194e-002 -6.08860981750e-002 -5.80128563972e-001 +6.93311675095e-001 -5.80128563972e-001 +6.93311675095e-001 -6.47548424849e-002 -6.09002784640e-002
2.02000000000e+009 -8.75874448639e-002 -6.05580294873e-002 -5.51443927106e-001 +7.15465614678e-001 -5.51443927106e-001 +7.15465614678e-001 -6.94843504128e-002 -5.71776618694e-002
2.04000000000e+009 -8.93856667595e-002 -6.01675623365e-002 -5.21920941066e-001 +7.36435907633e-001 -5.21920941066e-001 +7.36435907633e-001 -7.39638019948e-002 -5.30876905225e-002
2.06000000000e+009 -9.11696872875e-002 -5.97158928346e-002 -4.91608310159e-001 +7.56191400584e-001 -4.91608310159e-001 +7.56191400584e-001 -7.81647275240e-002 -4.86474543959e-002
2.08000000000e+009 -9.29359716434e-002 -5.92044848429e-002 -4.60555842223e-001 +7.74702938002e-001 -4.60555842223e-001 +7.74702938002e-001 -8.20598505302e-002 -4.38762388499e-002
2.10000000000e+009 -9.46811215060e-002 -5.86350593076e-002 -4.28814367063e-001 +7.91943395349e-001 -4.28814367063e-001 +7.91943395349e-001 -8.56232555997e-002 -3.87954391864e-002
2.12000000000e+009 -9.64018945447e-002 -5.80095820398e-002 -3.96435654600e-001 +8.07887708938e-001 -3.96435654600e-001 +8.07887708938e-001 -8.88305498954e-002 -3.34284625665e-002
2.14000000000e+009 -9.80952228483e-002 -5.73302500245e-002 -3.63472332876e-001 +8.22512902603e-001 -3.63472332876e-001 +8.22512902603e-001 -9.16590174507e-002 -2.78006177744e-002
2.16000000000e+009 -9.97582301691e-002 -5.65994763546e-002 -3.29977806009e-001 +8.35798111288e-001 -3.29977806009e-001 +8.35798111288e-001 -9.40877653518e-002 -2.19389933708e-002
2.18000000000e+009 -1.01388247881e-001 -5.58198738897e-002 -2.96006172195e-001 +8.47724601667e-001 -2.96006172195e-001 +8.47724601667e-001 -9.60978609631e-002 -1.58723248417e-002
2.20000000000e+009 -1.02982829563e-001 -5.49942377501e-002 -2.61612141844e-001 +8.58275789878e-001 -2.61612141844e-001 +8.58275789878e-001 -9.76724593959e-002 -9.63085140522e-003
2.22000000000e+009 -1.04539764122e-001 -5.41255267585e-002 -2.26850955897e-001 +8.67437256500e-001 -2.26850955897e-001 +8.67437256500e-001 -9.87969204721e-002 -3.24616319227e-003
