# HZ S RI R 50
2.00000000000e+007 -5.00269011853e-005 -2.34433479468e-004 +9.97177392369e-001 -1.36858492191e-002 +9.97177392369e-001 -1.36858492191e-002 -5.00269011853e-005 -2.34433479468e-004
4.00000000000e+007 -8.01607058398e-005 -4.67565637688e-004 +9.95697834421e-001 -2.73362263043e-002 +9.95697834421e-001 -2.73362263043e-002 -8.01607058398e-005 -4.67565637688e-004
6.00000000000e+007 -1.12326673917e-004 -6.99578754378e-004 +9.94283319334e-001 -4.09589398368e-002 +9.94283319334e-001 -4.09589398368e-002 -1.12326673917e-004 -6.99578754378e-004
8.00000000000e+007 -1.48575338763e-004 -9.30427024868e-004 +9.92812829209e-001 -5.45551357687e-002 +9.92812829209e-001 -5.45551357687e-002 -1.48575338763e-004 -9.30427024868e-004
1.00000000000e+008 -1.89677332355e-004 -1.16001204653e-003 +9.91239745656e-001 -6.81244045471e-002 +9.91239745656e-001 -6.81244045471e-002 -1.89677332355e-004 -1.16001204653e-003
1.20000000000e+008 -2.36006859062e-004 -1.38821264615e-003 +9.89540374872e-001 -8.16656473458e-002 +9.89540374872e-001 -8.16656473458e-002 -2.36006859062e-004 -1.38821264615e-003
1.40000000000e+008 -2.87766598878e-004 -1.61489568550e-003 +9.87700833078e-001 -9.51773882731e-002 +9.87700833078e-001 -9.51773882731e-002 -2.87766598878e-004 -1.61489568550e-003
1.60000000000e+008 -3.45069878772e-004 -1.83992114128e-003 +9.85712250684e-001 -1.08657919736e-001 +9.85712250684e-001 -1.08657919736e-001 -3.45069878772e-004 -1.83992114128e-003
1.80000000000e+008 -4.07977296930e-004 -2.06314488932e-003 +9.83568633012e-001 -1.22105380873e-001 +9.83568633012e-001 -1.22105380873e-001 -4.07977296930e-004 -2.06314488932e-003
2.00000000000e+008 -4.76515309542e-004 -2.28442040083e-003 +9.81265774046e-001 -1.35517804256e-001 +9.81265774046e-001 -1.35517804256e-001 -4.76515309542e-004 -2.28442040083e-003
2.20000000000e+008 -5.50686581197e-004 -2.50359986163e-003 +9.78800651576e-001 -1.48893145755e-001 +9.78800651576e-001 -1.48893145755e-001 -5.50686581197e-004 -2.50359986163e-003
2.40000000000e+008 -6.30476169327e-004 -2.72053495903e-003 +9.76171066191e-001 -1.62229304712e-001 +9.76171066191e-001 -1.62229304712e-001 -6.30476169327e-004 -2.72053495903e-003
2.60000000000e+008 -7.15855431870e-004 -2.93507746486e-003 +9.73375413773e-001 -1.75524138184e-001 +9.73375413773e-001 -1.75524138184e-001 -7.15855431870e-004 -2.93507746486e-003
2.80000000000e+008 -8.06784612569e-004 -3.14707968699e-003 +9.70412535714e-001 -1.88775471353e-001 +9.70412535714e-001 -1.88775471353e-001 -8.06784612569e-004 -3.14707968699e-003
3.00000000000e+008 -9.03214619676e-004 -3.35639483240e-003 +9.67281616669e-001 -2.01981105388e-001 +9.67281616669e-001 -2.01981105388e-001 -9.03214619676e-004 -3.35639483240e-003
3.20000000000e+008 -1.00508829238e-003 -3.56287730850e-003 +9.63982112619e-001 -2.15138823521e-001 +9.63982112619e-001 -2.15138823521e-001 -1.00508829238e-003 -3.56287730850e-003
3.40000000000e+008 -1.11234133079e-003 -3.76638298001e-003 +9.60513698925e-001 -2.28246395872e-001 +9.60513698925e-001 -2.28246395872e-001 -1.11234133079e-003 -3.76638298001e-003
3.60000000000e+008 -1.22490299853e-003 -3.96676939311e-003 +9.56876231971e-001 -2.41301583337e-001 +9.56876231971e-001 -2.41301583337e-001 -1.22490299853e-003 -3.96676939311e-003
3.80000000000e+008 -1.34269666807e-003 -4.16389597458e-003 +9.53069720283e-001 -2.54302140799e-001 +9.53069720283e-001 -2.54302140799e-001 -1.34269666807e-003 -4.16389597458e-003
4.00000000000e+008 -1.46564025472e-003 -4.35762421163e-003 +9.49094302392e-001 -2.67245819811e-001 +9.49094302392e-001 -2.67245819811e-001 -1.46564025472e-003 -4.35762421163e-003
4.20000000000e+008 -1.59364657083e-003 -4.54781781622e-003 +9.44950229620e-001 -2.80130370882e-001 +9.44950229620e-001 -2.80130370882e-001 -1.59364657083e-003 -4.54781781622e-003
4.40000000000e+008 -1.72662362159e-003 -4.73434287703e-003 +9.40637852486e-001 -2.92953545435e-001 +9.40637852486e-001 -2.92953545435e-001 -1.72662362159e-003 -4.73434287703e-003
4.60000000000e+008 -1.86447485769e-003 -4.91706800087e-003 +9.36157609847e-001 -3.05713097530e-001 +9.36157609847e-001 -3.05713097530e-001 -1.86447485769e-003 -4.91706800087e-003
4.80000000000e+008 -2.00709939579e-003 -5.09586444542e-003 +9.31510020117e-001 -3.18406785374e-001 +9.31510020117e-001 -3.18406785374e-001 -2.00709939579e-003 -5.09586444542e-003
5.00000000000e+008 -2.15439221485e-003 -5.27060624435e-003 +9.26695674085e-001 -3.31032372673e-001 +9.26695674085e-001 -3.31032372673e-001 -2.15439221485e-003 -5.27060624435e-003
5.20000000000e+008 -2.30624433392e-003 -5.44117032577e-003 +9.21715228992e-001 -3.43587629848e-001 +9.21715228992e-001 -3.43587629848e-001 -2.30624433392e-003 -5.44117032577e-003
5.40000000000e+008 -2.46254297607e-003 -5.60743662476e-003 +9.16569403588e-001 -3.56070335139e-001 +9.16569403588e-001 -3.56070335139e-001 -2.46254297607e-003 -5.60743662476e-003
5.60000000000e+008 -2.62317172161e-003 -5.76928819042e-003 +9.11258973980e-001 -3.68478275622e-001 +9.11258973980e-001 -3.68478275622e-001 -2.62317172161e-003 -5.76928819042e-003
5.80000000000e+008 -2.78801065314e-003 -5.92661128806e-003 +9.05784770108e-001 -3.80809248139e-001 +9.05784770108e-001 -3.80809248139e-001 -2.78801065314e-003 -5.92661128806e-003
6.00000000000e+008 -2.95693649441e-003 -6.07929549664e-003 +9.00147672726e-001 -3.93061060167e-001 +9.00147672726e-001 -3.93061060167e-001 -2.95693649441e-003 -6.07929549664e-003
6.20000000000e+008 -3.12982274446e-003 -6.22723380188e-003 +8.94348610811e-001 -4.05231530633e-001 +8.94348610811e-001 -4.05231530633e-001 -3.12982274446e-003 -6.22723380188e-003
6.40000000000e+008 -3.30653980824e-003 -6.37032268519e-003 +8.88388559302e-001 -4.17318490669e-001 +8.88388559302e-001 -4.17318490669e-001 -3.30653980824e-003 -6.37032268519e-003
6.60000000000e+008 -3.48695512459e-003 -6.50846220858e-003 +8.82268537124e-001 -4.29319784339e-001 +8.82268537124e-001 -4.29319784339e-001 -3.48695512459e-003 -6.50846220858e-003
6.80000000000e+008 -3.67093329232e-003 -6.64155609565e-003 +8.75989605451e-001 -4.41233269318e-001 +8.75989605451e-001 -4.41233269318e-001 -3.67093329232e-003 -6.64155609565e-003
7.00000000000e+008 -3.85833619493e-003 -6.76951180888e-003 +8.69552866155e-001 -4.53056817542e-001 +8.69552866155e-001 -4.53056817542e-001 -3.85833619493e-003 -6.76951180888e-003
7.20000000000e+008 -4.04902312446e-003 -6.89224062304e-003 +8.62959460429e-001 -4.64788315827e-001 +8.62959460429e-001 -4.64788315827e-001 -4.04902312446e-003 -6.89224062304e-003
7.40000000000e+008 -4.24285090471e-003 -7.00965769514e-003 +8.56210567537e-001 -4.76425666470e-001 +8.56210567537e-001 -4.76425666470e-001 -4.24285090471e-003 -7.00965769514e-003
7.60000000000e+008 -4.43967401425e-003 -7.12168213060e-003 +8.49307403692e-001 -4.87966787815e-001 +8.49307403692e-001 -4.87966787815e-001 -4.43967401425e-003 -7.12168213060e-003
7.80000000000e+008 -4.63934470929e-003 -7.22823704592e-003 +8.42251221021e-001 -4.99409614808e-001 +8.42251221021e-001 -4.99409614808e-001 -4.63934470929e-003 -7.22823704592e-003
8.00000000000e+008 -4.84171314664e-003 -7.32924962782e-003 +8.35043306626e-001 -5.10752099524e-001 +8.35043306626e-001 -5.10752099524e-001 -4.84171314664e-003 -7.32924962782e-003
8.20000000000e+008 -5.04662750686e-003 -7.42465118873e-003 +8.27684981709e-001 -5.21992211689e-001 +8.27684981709e-001 -5.21992211689e-001 -5.04662750686e-003 -7.42465118873e-003
8.40000000000e+008 -5.25393411765e-003 -7.51437721892e-003 +8.20177600758e-001 -5.33127939175e-001 +8.20177600758e-001 -5.33127939175e-001 -5.25393411765e-003 -7.51437721892e-003
8.60000000000e+008 -5.46347757758e-003 -7.59836743493e-003 +8.12522550796e-001 -5.44157288484e-001 +8.12522550796e-001 -5.44157288484e-001 -5.46347757758e-003 -7.59836743493e-003
8.80000000000e+008 -5.67510088022e-003 -7.67656582465e-003 +8.04721250661e-001 -5.55078285221e-001 +8.04721250661e-001 -5.55078285221e-001 -5.67510088022e-003 -7.67656582465e-003
9.00000000000e+008 -5.88864553855e-003 -7.74892068876e-003 +7.96775150338e-001 -5.65888974549e-001 +7.96775150338e-001 -5.65888974549e-001 -5.88864553855e-003 -7.74892068876e-003
9.20000000000e+008 -6.10395170980e-003 -7.81538467878e-003 +7.88685730318e-001 -5.76587421639e-001 +7.88685730318e-001 -5.76587421639e-001 -6.10395170980e-003 -7.81538467878e-003
9.40000000000e+008 -6.32085832063e-003 -7.87591483151e-003 +7.80454500986e-001 -5.87171712105e-001 +7.80454500986e-001 -5.87171712105e-001 -6.32085832063e-003 -7.87591483151e-003
9.60000000000e+008 -6.53920319263e-003 -7.93047260003e-003 +7.72083002039e-001 -5.97639952426e-001 +7.72083002039e-001 -5.97639952426e-001 -6.53920319263e-003 -7.93047260003e-003
9.80000000000e+008 -6.75882316808e-003 -7.97902388115e-003 +7.63572801921e-001 -6.07990270363e-001 +7.63572801921e-001 -6.07990270363e-001 -6.75882316808e-003 -7.97902388115e-003
1.00000000000e+009 -6.97955423600e-003 -8.02153903938e-003 +7.54925497282e-001 -6.18220815362e-001 +7.54925497282e-001 -6.18220815362e-001 -6.97955423600e-003 -8.02153903938e-003
1.02000000000e+009 -7.20123165837e-003 -8.05799292739e-003 +7.46142712447e-001 -6.28329758953e-001 +7.46142712447e-001 -6.28329758953e-001 -7.20123165837e-003 -8.05799292739e-003
1.04000000000e+009 -7.42369009649e-003 -8.08836490297e-003 +7.37226098905e-001 -6.38315295136e-001 +7.37226098905e-001 -6.38315295136e-001 -7.42369009649e-003 -8.08836490297e-003
1.06000000000e+009 -7.64676373738e-003 -8.11263884243e-003 +7.28177334806e-001 -6.48175640757e-001 +7.28177334806e-001 -6.48175640757e-001 -7.64676373738e-003 -8.11263884243e-003
1.08000000000e+009 -7.87028642027e-003 -8.13080315061e-003 +7.18998124474e-001 -6.57909035882e-001 +7.18998124474e-001 -6.57909035882e-001 -7.87028642027e-003 -8.13080315061e-003
1.10000000000e+009 -8.09409176295e-003 -8.14285076728e-003 +7.09690197922e-001 -6.67513744160e-001 +7.09690197922e-001 -6.67513744160e-001 -8.09409176295e-003 -8.14285076728e-003
1.12000000000e+009 -8.31801328804e-003 -8.14877917016e-003 +7.00255310384e-001 -6.76988053175e-001 +7.00255310384e-001 -6.76988053175e-001 -8.31801328804e-003 -8.14877917016e-003
1.14000000000e+009 -8.54188454900e-003 -8.14859037439e-003 +6.90695241842e-001 -6.86330274793e-001 +6.90695241842e-001 -6.86330274793e-001 -8.54188454900e-003 -8.14859037439e-003
1.16000000000e+009 -8.76553925593e-003 -8.14229092857e-003 +6.81011796568e-001 -6.95538745506e-001 +6.81011796568e-001 -6.95538745506e-001 -8.76553925593e-003 -8.14229092857e-003
1.18000000000e+009 -8.98881140098e-003 -8.12989190732e-003 +6.71206802672e-001 -7.04611826761e-001 +6.71206802672e-001 -7.04611826761e-001 -8.98881140098e-003 -8.12989190732e-003
1.20000000000e+009 -9.21153538326e-003 -8.11140890046e-003 +6.61282111643e-001 -7.13547905287e-001 +6.61282111643e-001 -7.13547905287e-001 -9.21153538326e-003 -8.11140890046e-003
1.22000000000e+009 -9.43354613333e-003 -8.08686199867e-003 +6.51239597906e-001 -7.22345393411e-001 +6.51239597906e-001 -7.22345393411e-001 -9.43354613333e-003 -8.08686199867e-003
1.24000000000e+009 -9.65467923704e-003 -8.05627577584e-003 +6.41081158376e-001 -7.31002729376e-001 +6.41081158376e-001 -7.31002729376e-001 -9.65467923704e-003 -8.05627577584e-003
1.26000000000e+009 -9.87477105864e-003 -8.01967926801e-003 +6.30808712012e-001 -7.39518377637e-001 +6.30808712012e-001 -7.39518377637e-001 -9.87477105864e-003 -8.01967926801e-003
1.28000000000e+009 -1.00936588633e-002 -7.97710594891e-003 +6.20424199380e-001 -7.47890829167e-001 +6.20424199380e-001 -7.47890829167e-001 -1.00936588633e-002 -7.97710594891e-003
1.30000000000e+009 -1.03111809383e-002 -7.92859370219e-003 +6.09929582209e-001 -7.56118601743e-001 +6.09929582209e-001 -7.56118601743e-001 -1.03111809383e-002 -7.92859370219e-003
1.32000000000e+009 -1.05271767143e-002 -7.87418479040e-003 +5.99326842956e-001 -7.64200240236e-001 +5.99326842956e-001 -7.64200240236e-001 -1.05271767143e-002 -7.87418479040e-003
1.34000000000e+009 -1.07414868843e-002 -7.81392582057e-003 +5.88617984369e-001 -7.72134316883e-001 +5.88617984369e-001 -7.72134316883e-001 -1.07414868843e-002 -7.81392582057e-003
1.36000000000e+009 -1.09539535222e-002 -7.74786770664e-003 +5.77805029044e-001 -7.79919431565e-001 +5.77805029044e-001 -7.79919431565e-001 -1.09539535222e-002 -7.74786770664e-003
1.38000000000e+009 -1.11644202007e-002 -7.67606562866e-003 +5.66890018997e-001 -7.87554212068e-001 +5.66890018997e-001 -7.87554212068e-001 -1.11644202007e-002 -7.67606562866e-003
1.40000000000e+009 -1.13727321066e-002 -7.59857898875e-003 +5.55875015218e-001 -7.95037314343e-001 +5.55875015218e-001 -7.95037314343e-001 -1.13727321066e-002 -7.59857898875e-003
1.42000000000e+009 -1.15787361561e-002 -7.51547136399e-003 +5.44762097242e-001 -8.02367422761e-001 +5.44762097242e-001 -8.02367422761e-001 -1.15787361561e-002 -7.51547136399e-003
1.44000000000e+009 -1.17822811077e-002 -7.42681045619e-003 +5.33553362709e-001 -8.09543250357e-001 +5.33553362709e-001 -8.09543250357e-001 -1.17822811077e-002 -7.42681045619e-003
1.46000000000e+009 -1.19832176742e-002 -7.33266803856e-003 +5.22250926927e-001 -8.16563539069e-001 +5.22250926927e-001 -8.16563539069e-001 -1.19832176742e-002 -7.33266803856e-003
1.48000000000e+009 -1.21813986330e-002 -7.23311989941e-003 +5.10856922433e-001 -8.23427059974e-001 +5.10856922433e-001 -8.23427059974e-001 -1.21813986330e-002 -7.23311989941e-003
1.50000000000e+009 -1.23766789342e-002 -7.12824578287e-003 +4.99373498556e-001 -8.30132613516e-001 +4.99373498556e-001 -8.30132613516e-001 -1.23766789342e-002 -7.12824578287e-003
1.52000000000e+009 -1.25689158081e-002 -7.01812932666e-003 +4.87802820980e-001 -8.36679029721e-001 +4.87802820980e-001 -8.36679029721e-001 -1.25689158081e-002 -7.01812932666e-003
1.54000000000e+009 -1.27579688695e-002 -6.90285799703e-003 +4.76147071300e-001 -8.43065168420e-001 +4.76147071300e-001 -8.43065168420e-001 -1.27579688695e-002 -6.90285799703e-003
1.56000000000e+009 -1.29437002213e-002 -6.78252302084e-003 +4.64408446586e-001 -8.49289919451e-001 +4.64408446586e-001 -8.49289919451e-001 -1.29437002213e-002 -6.78252302084e-003
1.58000000000e+009 -1.31259745556e-002 -6.65721931493e-003 +4.52589158938e-001 -8.55352202867e-001 +4.52589158938e-001 -8.55352202867e-001 -1.31259745556e-002 -6.65721931493e-003
1.60000000000e+009 -1.33046592525e-002 -6.52704541270e-003 +4.40691435046e-001 -8.61250969127e-001 +4.40691435046e-001 -8.61250969127e-001 -1.33046592525e-002 -6.52704541270e-003
1.62000000000e+009 -1.34796244775e-002 -6.39210338809e-003 +4.28717515748e-001 -8.66985199288e-001 +4.28717515748e-001 -8.66985199288e-001 -1.34796244775e-002 -6.39210338809e-003
1.64000000000e+009 -1.36507432762e-002 -6.25249877700e-003 +4.16669655583e-001 -8.72553905189e-001 +4.16669655583e-001 -8.72553905189e-001 -1.36507432762e-002 -6.25249877700e-003
1.66000000000e+009 -1.38178916669e-002 -6.10834049607e-003 +4.04550122349e-001 -8.77956129629e-001 +4.04550122349e-001 -8.77956129629e-001 -1.38178916669e-002 -6.10834049607e-003
1.68000000000e+009 -1.39809487310e-002 -5.95974075912e-003 +3.92361196655e-001 -8.83190946536e-001 +3.92361196655e-001 -8.83190946536e-001 -1.39809487310e-002 -5.95974075912e-003
1.70000000000e+009 -1.41397967007e-002 -5.80681499110e-003 +3.80105171478e-001 -8.88257461135e-001 +3.80105171478e-001 -8.88257461135e-001 -1.41397967007e-002 -5.80681499110e-003
1.72000000000e+009 -1.42943210450e-002 -5.64968173974e-003 +3.67784351711e-001 -8.93154810104e-001 +3.67784351711e-001 -8.93154810104e-001 -1.42943210450e-002 -5.64968173974e-003
1.74000000000e+009 -1.44444105521e-002 -5.48846258490e-003 +3.55401053718e-001 -8.97882161730e-001 +3.55401053718e-001 -8.97882161730e-001 -1.44444105521e-002 -5.48846258490e-003
1.76000000000e+009 -1.45899574105e-002 -5.32328204577e-003 +3.42957604882e-001 -9.02438716051e-001 +3.42957604882e-001 -9.02438716051e-001 -1.45899574105e-002 -5.32328204577e-003
1.78000000000e+009 -1.47308572864e-002 -5.15426748592e-003 +3.30456343158e-001 -9.06823705001e-001 +3.30456343158e-001 -9.06823705001e-001 -1.47308572864e-002 -5.15426748592e-003
1.80000000000e+009 -1.48670093992e-002 -4.98154901626e-003 +3.17899616619e-001 -9.11036392544e-001 +3.17899616619e-001 -9.11036392544e-001 -1.48670093992e-002 -4.98154901626e-003
1.82000000000e+009 -1.49983165937e-002 -4.80525939609e-003 +3.05289783008e-001 -9.15076074795e-001 +3.05289783008e-001 -9.15076074795e-001 -1.49983165937e-002 -4.80525939609e-003
1.84000000000e+009 -1.51246854103e-002 -4.62553393219e-003 +2.92629209280e-001 -9.18942080153e-001 +2.92629209280e-001 -9.18942080153e-001 -1.51246854103e-002 -4.62553393219e-003
1.86000000000e+009 -1.52460261513e-002 -4.44251037608e-003 +2.79920271154e-001 -9.22633769407e-001 +2.79920271154e-001 -9.22633769407e-001 -1.52460261513e-002 -4.44251037608e-003
1.88000000000e+009 -1.53622529455e-002 -4.25632881962e-003 +2.67165352656e-001 -9.26150535850e-001 +2.67165352656e-001 -9.26150535850e-001 -1.53622529455e-002 -4.25632881962e-003
1.90000000000e+009 -1.54732838091e-002 -4.06713158878e-003 +2.54366845667e-001 -9.29491805383e-001 +2.54366845667e-001 -9.29491805383e-001 -1.54732838091e-002 -4.06713158878e-003
1.92000000000e+009 -1.55790407039e-002 -3.87506313599e-003 +2.41527149466e-001 -9.32657036609e-001 +2.41527149466e-001 -9.32657036609e-001 -1.55790407039e-002 -3.87506313599e-003
1.94000000000e+009 -1.56794495925e-002 -3.68026993084e-003 +2.28648670274e-001 -9.35645720927e-001 +2.28648670274e-001 -9.35645720927e-001 -1.56794495925e-002 -3.68026993084e-003
1.96000000000e+009 -1.57744404907e-002 -3.48290034946e-003 +2.15733820799e-001 -9.38457382616e-001 +2.15733820799e-001 -9.38457382616e-001 -1.57744404907e-002 -3.48290034946e-003
1.98000000000e+009 -1.58639475162e-002 -3.28310456251e-003 +2.02785019778e-001 -9.41091578913e-001 +2.02785019778e-001 -9.41091578913e-001 -1.58639475162e-002 -3.28310456251e-003
2.00000000000e+009 -1.59479089350e-002 -3.08103442190e-003 +1.89804691524e-001 -9.43547900085e-001 +1.89804691524e-001 -9.43547900085e-001 -1.59479089350e-002 -3.08103442190e-003
2.02000000000e+009 -1.60262672043e-002 -2.87684334637e-003 +1.76795265463e-001 -9.45825969498e-001 +1.76795265463e-001 -9.45825969498e-001 -1.60262672043e-002 -2.87684334637e-003
2.04000000000e+009 -1.60989690118e-002 -2.67068620595e-003 +1.63759175678e-001 -9.47925443675e-001 +1.63759175678e-001 -9.47925443675e-001 -1.60989690118e-002 -2.67068620595e-003
2.06000000000e+009 -1.61659653128e-002 -2.46271920549e-003 +1.50698860456e-001 -9.49846012351e-001 +1.50698860456e-001 -9.49846012351e-001 -1.61659653128e-002 -2.46271920549e-003
2.08000000000e+009 -1.62272113631e-002 -2.25309976715e-003 +1.37616761822e-001 -9.51587398521e-001 +1.37616761822e-001 -9.51587398521e-001 -1.62272113631e-002 -2.25309976715e-003
2.10000000000e+009 -1.62826667496e-002 -2.04198641222e-003 +1.24515325086e-001 -9.53149358482e-001 +1.24515325086e-001 -9.53149358482e-001 -1.62826667496e-002 -2.04198641222e-003
2.12000000000e+009 -1.63322954165e-002 -1.82953864209e-003 +1.11396998384e-001 -9.54531681867e-001 +1.11396998384e-001 -9.54531681867e-001 -1.63322954165e-002 -1.82953864209e-003
2.14000000000e+009 -1.63760656895e-002 -1.61591681861e-003 +9.82642322181e-002 -9.55734191679e-001 +9.82642322181e-002 -9.55734191679e-001 -1.63760656895e-002 -1.61591681861e-003
2.16000000000e+009 -1.64139502958e-002 -1.40128204392e-003 +8.51194790007e-002 -9.56756744309e-001 +8.51194790007e-002 -9.56756744309e-001 -1.64139502958e-002 -1.40128204392e-003
2.18000000000e+009 -1.64459263812e-002 -1.18579603976e-003 +7.19651925937e-002 -9.57599229557e-001 +7.19651925937e-002 -9.57599229557e-001 -1.64459263812e-002 -1.18579603976e-003
2.20000000000e+009 -1.64719755237e-002 -9.69621026449e-004 +5.88038278519e-002 -9.58261570643e-001 +5.88038278519e-002 -9.58261570643e-001 -1.64719755237e-002 -9.69621026449e-004
2.22000000000e+009 -1.64920837440e-002 -7.52919601573e-004 +4.56378401654e-002 -9.58743724210e-001 +4.56378401654e-002 -9.58743724210e-001 -1.64920837440e-002 -7.52919601573e-004
