# HZ S RI R 50
2.00000000000e+007 -4.85635758226e-004 -3.17781140188e-003 +9.83243690216e-001 -7.91686738918e-002 +9.83243690216e-001 -7.91686738918e-002 -4.85635758226e-004 -3.17781140188e-003
4.00000000000e+007 -1.32706524311e-003 -6.20652961844e-003 +9.67868272704e-001 -1.56875744634e-001 +9.67868272704e-001 -1.56875744634e-001 -1.32706524311e-003 -6.20652961844e-003
6.00000000000e+007 -2.59630959985e-003 -9.01488772611e-003 +9.47620129365e-001 -2.32927035603e-001 +9.47620129365e-001 -2.32927035603e-001 -2.59630959985e-003 -9.01488772611e-003
8.00000000000e+007 -4.25298686941e-003 -1.15288503829e-002 +9.22054571791e-001 -3.06946688961e-001 +9.22054571791e-001 -3.06946688961e-001 -4.25298686941e-003 -1.15288503829e-002
1.00000000000e+008 -6.23771493793e-003 -1.36824733548e-002 +8.91129477844e-001 -3.78529054017e-001 +8.91129477844e-001 -3.78529054017e-001 -6.23771493793e-003 -1.36824733548e-002
1.20000000000e+008 -8.47819797174e-003 -1.54214288666e-002 +8.54949049059e-001 -4.47266599350e-001 +8.54949049059e-001 -4.47266599350e-001 -8.47819797174e-003 -1.54214288666e-002
1.40000000000e+008 -1.08925796570e-002 -1.67052599094e-002 +8.13697727406e-001 -5.12761548525e-001 +8.13697727406e-001 -5.12761548525e-001 -1.08925796570e-002 -1.67052599094e-002
1.60000000000e+008 -1.33924365967e-002 -1.75089348766e-002 +7.67614927748e-001 -5.74632474897e-001 +7.67614927748e-001 -5.74632474897e-001 -1.33924365967e-002 -1.75089348766e-002
1.80000000000e+008 -1.58857723697e-002 -1.78238205912e-002 +7.16982605689e-001 -6.32518732844e-001 +7.16982605689e-001 -6.32518732844e-001 -1.58857723697e-002 -1.78238205912e-002
2.00000000000e+008 -1.82800455394e-002 -1.76581039115e-002 +6.62117810907e-001 -6.86083734963e-001 +6.62117810907e-001 -6.86083734963e-001 -1.82800455394e-002 -1.76581039115e-002
2.20000000000e+008 -2.04851842704e-002 -1.70366757325e-002 +6.03367469765e-001 -7.35017507558e-001 +6.03367469765e-001 -7.35017507558e-001 -2.04851842704e-002 -1.70366757325e-002
2.40000000000e+008 -2.24165166501e-002 -1.60004941910e-002 +5.41104277771e-001 -7.79038741538e-001 +5.41104277771e-001 -7.79038741538e-001 -2.24165166501e-002 -1.60004941910e-002
2.60000000000e+008 -2.39975401459e-002 -1.46054528388e-002 +4.75723197423e-001 -8.17896464758e-001 +4.75723197423e-001 -8.17896464758e-001 -2.39975401459e-002 -1.46054528388e-002
2.80000000000e+008 -2.51624552524e-002 -1.29207900933e-002 +4.07638313826e-001 -8.51371418832e-001 +4.07638313826e-001 -8.51371418832e-001 -2.51624552524e-002 -1.29207900933e-002
3.00000000000e+008 -2.58583937336e-002 -1.10270867233e-002 +3.37279915581e-001 -8.79277200503e-001 +3.37279915581e-001 -8.79277200503e-001 -2.58583937336e-002 -1.10270867233e-002
3.20000000000e+008 -2.60472794868e-002 -9.01390774473e-003 +2.65091721987e-001 -9.01461213069e-001 +2.65091721987e-001 -9.01461213069e-001 -2.60472794868e-002 -9.01390774473e-003
3.40000000000e+008 -2.57072692578e-002 -6.97715355846e-003 +1.91528202988e-001 -9.17805462170e-001 +1.91528202988e-001 -9.17805462170e-001 -2.57072692578e-002 -6.97715355846e-003
3.60000000000e+008 -2.48337307940e-002 -5.01619228380e-003 +1.17051950418e-001 -9.28227220047e-001 +1.17051950418e-001 -9.28227220047e-001 -2.48337307940e-002 -5.01619228380e-003
3.80000000000e+008 -2.34397273166e-002 -3.23085094639e-003 +4.21310654755e-002 -9.32679572460e-001 +4.21310654755e-002 -9.32679572460e-001 -2.34397273166e-002 -3.23085094639e-003
4.00000000000e+008 -2.15559892239e-002 -1.71834738243e-003 -3.27634684599e-002 -9.31151852433e-001 -3.27634684599e-002 -9.31151852433e-001 -2.15559892239e-002 -1.71834738243e-003
4.20000000000e+008 -1.92303666066e-002 -5.70247341407e-004 -1.07160454294e-001 -9.23669955263e-001 -1.07160454294e-001 -9.23669955263e-001 -1.92303666066e-002 -5.70247341407e-004
4.40000000000e+008 -1.65267693030e-002 +1.30467814894e-004 -1.80591212352e-001 -9.10296520005e-001 -1.80591212352e-001 -9.10296520005e-001 -1.65267693030e-002 +1.30467814894e-004
4.60000000000e+008 -1.35236147256e-002 +3.12138352632e-004 -2.52592388807e-001 -8.91130954593e-001 -2.52592388807e-001 -8.91130954593e-001 -1.35236147256e-002 +3.12138352632e-004
4.80000000000e+008 -1.03118173168e-002 -8.31131707067e-005 -3.22708847668e-001 -8.66309275289e-001 -3.22708847668e-001 -8.66309275289e-001 -1.03118173168e-002 -8.31131707067e-005
5.00000000000e+008 -6.99236698370e-003 -1.09727421105e-003 -3.90496642844e-001 -8.36003726865e-001 -3.90496642844e-001 -8.36003726865e-001 -6.99236698370e-003 -1.09727421105e-003
5.20000000000e+008 -3.67355685287e-003 -2.75475646951e-003 -4.55526056083e-001 -8.00422148156e-001 -4.55526056083e-001 -8.00422148156e-001 -3.67355685287e-003 -2.75475646951e-003
5.40000000000e+008 -4.67932738543e-004 -5.06119120586e-003 -5.17384675469e-001 -7.59807048709e-001 -5.17384675469e-001 -7.59807048709e-001 -4.67932738543e-004 -5.06119120586e-003
5.60000000000e+008 +2.51095266600e-003 -8.00275264668e-003 -5.75680478341e-001 -7.14434366308e-001 -5.75680478341e-001 -7.14434366308e-001 +2.51095266600e-003 -8.00275264668e-003
5.80000000000e+008 +5.15188922475e-003 -1.15460421863e-002 -6.30044872717e-001 -6.64611882120e-001 -6.30044872717e-001 -6.64611882120e-001 +5.15188922475e-003 -1.15460421863e-002
6.00000000000e+008 +7.34936464663e-003 -1.56385499029e-002 -6.80135643337e-001 -6.10677279756e-001 -6.80135643337e-001 -6.10677279756e-001 +7.34936464663e-003 -1.56385499029e-002
6.20000000000e+008 +9.00682471634e-003 -2.02096923457e-002 -7.25639742851e-001 -5.52995846325e-001 -7.25639742851e-001 -5.52995846325e-001 +9.00682471634e-003 -2.02096923457e-002
6.40000000000e+008 +1.00397378092e-002 -2.51724072046e-002 -7.66275866190e-001 -4.91957826776e-001 -7.66275866190e-001 -4.91957826776e-001 +1.00397378092e-002 -2.51724072046e-002
6.60000000000e+008 +1.03783668948e-002 -3.04252670928e-002 -8.01796746956e-001 -4.27975456765e-001 -8.01796746956e-001 -4.27975456765e-001 +1.03783668948e-002 -3.04252670928e-002
6.80000000000e+008 +9.97015975826e-003 -3.58550570545e-002 -8.31991119040e-001 -3.61479713057e-001 -8.31991119040e-001 -3.61479713057e-001 +9.97015975826e-003 -3.58550570545e-002
7.00000000000e+008 +8.78167919066e-003 -4.13397444001e-002 -8.56685294464e-001 -2.92916833089e-001 -8.56685294464e-001 -2.92916833089e-001 +8.78167919066e-003 -4.13397444001e-002
7.20000000000e+008 +6.80000903024e-003 -4.67517558428e-002 -8.75744319299e-001 -2.22744665946e-001 -8.75744319299e-001 -2.22744665946e-001 +6.80000903024e-003 -4.67517558428e-002
7.40000000000e+008 +4.03358859335e-003 -5.19614663502e-002 -8.89072682888e-001 -1.51428924878e-001 -8.89072682888e-001 -1.51428924878e-001 +4.03358859335e-003 -5.19614663502e-002
7.60000000000e+008 +5.12446462340e-004 -5.68407971358e-002 -8.96614570668e-001 -7.94394159564e-002 -8.96614570668e-001 -7.94394159564e-002 +5.12446462340e-004 -5.68407971358e-002
7.80000000000e+008 -3.71217606772e-003 -6.12668171020e-002 -8.98353666839e-001 -7.24631825115e-003 -8.98353666839e-001 -7.24631825115e-003 -3.71217606772e-003 -6.12668171020e-002
8.00000000000e+008 -8.56880224965e-003 -6.51252428702e-002 -8.94312528806e-001 +6.46834121771e-002 -8.94312528806e-001 +6.46834121771e-002 -8.56880224965e-003 -6.51252428702e-002
8.20000000000e+008 -1.39672697740e-002 -6.83137371088e-002 -8.84551569983e-001 +1.35889448916e-001 -8.84551569983e-001 +1.35889448916e-001 -1.39672697740e-002 -6.83137371088e-002
8.40000000000e+008 -1.98008084443e-002 -7.07449128182e-002 -8.69167700100e-001 +2.05921256957e-001 -8.69167700100e-001 +2.05921256957e-001 -1.98008084443e-002 -7.07449128182e-002
8.60000000000e+008 -2.59485863411e-002 -7.23489619561e-002 -8.48292681964e-001 +2.74340966725e-001 -8.48292681964e-001 +2.74340966725e-001 -2.59485863411e-002 -7.23489619561e-002
8.80000000000e+008 -3.22786534884e-002 -7.30758396089e-002 -8.22091270149e-001 +3.40725932110e-001 -8.22091270149e-001 +3.40725932110e-001 -3.22786534884e-002 -7.30758396089e-002
9.00000000000e+008 -3.86512033280e-002 -7.28969490667e-002 -7.90759199911e-001 +4.04670959781e-001 -7.90759199911e-001 +4.04670959781e-001 -3.86512033280e-002 -7.28969490667e-002
9.20000000000e+008 -4.49220666046e-002 -7.18062879069e-002 -7.54521093729e-001 +4.65790212702e-001 -7.54521093729e-001 +4.65790212702e-001 -4.49220666046e-002 -7.18062879069e-002
9.40000000000e+008 -5.09463493783e-002 -6.98210298518e-002 -7.13628348399e-001 +5.23718805639e-001 -7.13628348399e-001 +5.23718805639e-001 -5.09463493783e-002 -6.98210298518e-002
9.60000000000e+008 -5.65821264830e-002 -6.69815311967e-002 -6.68357057758e-001 +5.78114123644e-001 -6.68357057758e-001 +5.78114123644e-001 -5.65821264830e-002 -6.69815311967e-002
9.80000000000e+008 -6.16941033917e-002 -6.33507636053e-002 -6.19006015589e-001 +6.28656905496e-001 -6.19006015589e-001 +6.28656905496e-001 -6.16941033917e-002 -6.33507636053e-002
1.00000000000e+009 -6.61571626526e-002 -5.90131868247e-002 -5.65894830428e-001 +6.75052142119e-001 -5.65894830428e-001 +6.75052142119e-001 -6.61571626526e-002 -5.90131868247e-002
1.02000000000e+009 -6.98597153365e-002 -5.40730853263e-002 -5.09362169820e-001 +7.17029844903e-001 -5.09362169820e-001 +7.17029844903e-001 -6.98597153365e-002 -5.40730853263e-002
1.04000000000e+009 -7.27067828785e-002 -4.86524021420e-002 -4.49764136529e-001 +7.54345740244e-001 -4.49764136529e-001 +7.54345740244e-001 -7.27067828785e-002 -4.86524021420e-002
1.06000000000e+009 -7.46227399923e-002 -4.28881114549e-002 -3.87472764347e-001 +7.86781944453e-001 -3.87472764347e-001 +7.86781944453e-001 -7.46227399923e-002 -4.28881114549e-002
1.08000000000e+009 -7.55536548117e-002 -3.69291791175e-002 -3.22874606974e-001 +8.14147667619e-001 -3.22874606974e-001 +8.14147667619e-001 -7.55536548117e-002 -3.69291791175e-002
1.10000000000e+009 -7.54691680600e-002 -3.09331675291e-002 -2.56369380845e-001 +8.36279986118e-001 -2.56369380845e-001 +8.36279986118e-001 -7.54691680600e-002 -3.09331675291e-002
1.12000000000e+009 -7.43638589912e-002 -2.50625484898e-002 -1.88368612415e-001 +8.53044711691e-001 -1.88368612415e-001 +8.53044711691e-001 -7.43638589912e-002 -2.50625484898e-002
1.14000000000e+009 -7.22580523684e-002 -1.94807949627e-002 -1.19294232881e-001 +8.64337370813e-001 -1.19294232881e-001 +8.64337370813e-001 -7.22580523684e-002 -1.94807949627e-002
1.16000000000e+009 -6.91980282144e-002 -1.43483301819e-002 -4.95770591721e-002 +8.70084291995e-001 -4.95770591721e-002 +8.70084291995e-001 -6.91980282144e-002 -1.43483301819e-002
1.18000000000e+009 -6.52556049214e-002 -9.81842013878e-003 +2.03449001615e-002 +8.70243781519e-001 +2.03449001615e-002 +8.70243781519e-001 -6.52556049214e-002 -9.81842013878e-003
1.20000000000e+009 -6.05270769631e-002 -6.03310285144e-003 +9.00283716548e-002 +8.64807350684e-001 +9.00283716548e-002 +8.64807350684e-001 -6.05270769631e-002 -6.03310285144e-003
1.22000000000e+009 -5.51315012655e-002 -3.11925448938e-003 +1.59027025385e-001 +8.53800940918e-001 +1.59027025385e-001 +8.53800940918e-001 -5.51315012655e-002 -3.11925448938e-003
1.24000000000e+009 -4.92083414593e-002 -1.18489769256e-003 +2.26894001797e-001 +8.37286078193e-001 +2.26894001797e-001 +8.37286078193e-001 -4.92083414593e-002 -1.18489769256e-003
1.26000000000e+009 -4.29144967478e-002 -3.15860489402e-004 +2.93184776925e-001 +8.15360876035e-001 +2.93184776925e-001 +8.15360876035e-001 -4.29144967478e-002 -3.15860489402e-004
1.28000000000e+009 -3.64207616790e-002 -5.72894198026e-004 +3.57460366121e-001 +7.88160798282e-001 +3.57460366121e-001 +7.88160798282e-001 -3.64207616790e-002 -5.72894198026e-004
1.30000000000e+009 -2.99077841237e-002 -1.98935473438e-003 +4.19290843922e-001 +7.55859089396e-001 +4.19290843922e-001 +7.55859089396e-001 -2.99077841237e-002 -1.98935473438e-003
1.32000000000e+009 -2.35616103028e-002 -4.56954312742e-003 +4.78259134000e-001 +7.18666782496e-001 +4.78259134000e-001 +7.18666782496e-001 -2.35616103028e-002 -4.56954312742e-003
1.34000000000e+009 -1.75689265860e-002 -8.28778727519e-003 +5.33964999533e-001 +6.76832203736e-001 +5.33964999533e-001 +6.76832203736e-001 -1.75689265860e-002 -8.28778727519e-003
1.36000000000e+009 -1.21121265892e-002 -1.30883279376e-002 +5.86029142580e-001 +6.30639906266e-001 +5.86029142580e-001 +6.30639906266e-001 -1.21121265892e-002 -1.30883279376e-002
1.38000000000e+009 -7.36434730938e-003 -1.88860479528e-002 +6.34097302725e-001 +5.80408987497e-001 +6.34097302725e-001 +5.80408987497e-001 -7.36434730938e-003 -1.88860479528e-002
1.40000000000e+009 -3.48462819321e-003 -2.55680554661e-002 +6.77844232080e-001 +5.26490768719e-001 +6.77844232080e-001 +5.26490768719e-001 -3.48462819321e-003 -2.55680554661e-002
1.42000000000e+009 -6.13350867442e-004 -3.29961008182e-002 +7.16977416982e-001 +4.69265845055e-001 +7.16977416982e-001 +4.69265845055e-001 -6.13350867442e-004 -3.29961008182e-002
1.44000000000e+009 +1.13188613521e-003 -4.10097743124e-002 +7.51240417488e-001 +4.09140544403e-001 +7.51240417488e-001 +4.09140544403e-001 +1.13188613521e-003 -4.10097743124e-002
1.46000000000e+009 +1.65981434505e-003 -4.94304003089e-002 +7.80415704379e-001 +3.46542864422e-001 +7.80415704379e-001 +3.46542864422e-001 +1.65981434505e-003 -4.94304003089e-002
1.48000000000e+009 +9.08339174207e-004 -5.80655140275e-002 +8.04326889780e-001 +2.81917984522e-001 +8.04326889780e-001 +2.81917984522e-001 +9.08339174207e-004 -5.80655140275e-002
1.50000000000e+009 -1.15341916178e-003 -6.67137830649e-002 +8.22840270810e-001 +2.15723473166e-001 +8.22840270810e-001 +2.15723473166e-001 -1.15341916178e-003 -6.67137830649e-002
1.52000000000e+009 -4.52395702218e-003 -7.51702176270e-002 +8.35865634488e-001 +1.48424327785e-001 +8.35865634488e-001 +1.48424327785e-001 -4.52395702218e-003 -7.51702176270e-002
1.54000000000e+009 -9.16912668168e-003 -8.32315030723e-002 +8.43356304595e-001 +8.04879938825e-002 +8.43356304595e-001 +8.04879938825e-002 -9.16912668168e-003 -8.32315030723e-002
1.56000000000e+009 -1.50227843064e-002 -9.07012861796e-002 +8.45308445025e-001 +1.23795107934e-002 +8.45308445025e-001 +1.23795107934e-002 -1.50227843064e-002 -9.07012861796e-002
1.58000000000e+009 -2.19883132313e-002 -9.73952525622e-002 +8.41759667153e-001 -5.54430760115e-002 +8.41759667153e-001 -5.54430760115e-002 -2.19883132313e-002 -9.73952525622e-002
1.60000000000e+009 -2.99409582787e-002 -1.03145846151e-001 +8.32787018574e-001 -1.22532911604e-001 +8.32787018574e-001 -1.22532911604e-001 -2.99409582787e-002 -1.03145846151e-001
1.62000000000e+009 -3.87308807879e-002 -1.07806501403e-001 +8.18504455463e-001 -1.88458034798e-001 +8.18504455463e-001 -1.88458034798e-001 -3.87308807879e-002 -1.07806501403e-001
1.64000000000e+009 -4.81868240831e-002 -1.11255283182e-001 +7.99059919229e-001 -2.52804512412e-001 +7.99059919229e-001 -2.52804512412e-001 -4.81868240831e-002 -1.11255283182e-001
1.66000000000e+009 -5.81202660131e-002 -1.13397856153e-001 +7.74632149330e-001 -3.15178959160e-001 +7.74632149330e-001 -3.15178959160e-001 -5.81202660131e-002 -1.13397856153e-001
1.68000000000e+009 -6.83299290274e-002 -1.14169733099e-001 +7.45427367687e-001 -3.75210428839e-001 +7.45427367687e-001 -3.75210428839e-001 -6.83299290274e-002 -1.14169733099e-001
1.70000000000e+009 -7.86065185580e-002 -1.13537777921e-001 +7.11675966483e-001 -4.32551692677e-001 +7.11675966483e-001 -4.32551692677e-001 -7.86065185580e-002 -1.13537777921e-001
1.72000000000e+009 -8.87375663071e-002 -1.11500962776e-001 +6.73629320863e-001 -4.86879948502e-001 +6.73629320863e-001 -4.86879948502e-001 -8.87375663071e-002 -1.11500962776e-001
1.74000000000e+009 -9.85122651219e-002 -1.08090398611e-001 +6.31556832303e-001 -5.37897028275e-001 +6.31556832303e-001 -5.37897028275e-001 -9.85122651219e-002 -1.08090398611e-001
1.76000000000e+009 -1.07726195007e-001 -1.03368673722e-001 +5.85743288390e-001 -5.85329190837e-001 +5.85743288390e-001 -5.85329190837e-001 -1.07726195007e-001 -1.03368673722e-001
1.78000000000e+009 -1.16185853977e-001 -9.74285456037e-002 +5.36486601834e-001 -6.28926600706e-001 +5.36486601834e-001 -6.28926600706e-001 -1.16185853977e-001 -9.74285456037e-002
1.80000000000e+009 -1.23712921466e-001 -9.03910376327e-002 +4.84095966849e-001 -6.68462602410e-001 +4.84095966849e-001 -6.68462602410e-001 -1.23712921466e-001 -9.03910376327e-002
1.82000000000e+009 -1.30148194734e-001 -8.24029945222e-002 +4.28890445914e-001 -7.03732903161e-001 +4.28890445914e-001 -7.03732903161e-001 -1.30148194734e-001 -8.24029945222e-002
1.84000000000e+009 -1.35355149108e-001 -7.36341500453e-002 +3.71197975103e-001 -7.34554774987e-001 +3.71197975103e-001 -7.34554774987e-001 -1.35355149108e-001 -7.36341500453e-002
1.86000000000e+009 -1.39223080547e-001 -6.42737582174e-002 +3.11354752625e-001 -7.60766381085e-001 +3.11354752625e-001 -7.60766381085e-001 -1.39223080547e-001 -6.42737582174e-002
1.88000000000e+009 -1.41669793502e-001 -5.45268362155e-002 +2.49704953455e-001 -7.82226320607e-001 +2.49704953455e-001 -7.82226320607e-001 -1.41669793502e-001 -5.45268362155e-002
1.90000000000e+009 -1.42643798673e-001 -4.46100649262e-002 +1.86600693495e-001 -7.98813471680e-001 +1.86600693495e-001 -7.98813471680e-001 -1.42643798673e-001 -4.46100649262e-002
1.92000000000e+009 -1.42125984328e-001 -3.47473922572e-002 +1.22402150107e-001 -8.10427194594e-001 +1.22402150107e-001 -8.10427194594e-001 -1.42125984328e-001 -3.47473922572e-002
1.94000000000e+009 -1.40130722279e-001 -2.51653861378e-002 +5.74777325261e-002 -8.16987936073e-001 +5.74777325261e-002 -8.16987936073e-001 -1.40130722279e-001 -2.51653861378e-002
1.96000000000e+009 -1.36706366393e-001 -1.60883891254e-002 -7.79581388295e-003 -8.18438251717e-001 -7.79581388295e-003 -8.18438251717e-001 -1.36706366393e-001 -1.60883891254e-002
1.98000000000e+009 -1.31935098889e-001 -7.73353508451e-003 -7.30334906338e-002 -8.14744237524e-001 -7.30334906338e-002 -8.14744237524e-001 -1.31935098889e-001 -7.73353508451e-003
2.00000000000e+009 -1.25932079109e-001 -3.05700467039e-004 -1.37842437471e-001 -8.05897333377e-001 -1.37842437471e-001 -8.05897333377e-001 -1.25932079109e-001 -3.05700467039e-004
2.02000000000e+009 -1.18843852369e-001 +6.00752219673e-003 -2.01822747266e-001 -7.91916432353e-001 -2.01822747266e-001 -7.91916432353e-001 -1.18843852369e-001 +6.00752219673e-003
2.04000000000e+009 -1.10845984169e-001 +1.10407238444e-002 -2.64568807200e-001 -7.72850200783e-001 -2.64568807200e-001 -7.72850200783e-001 -1.10845984169e-001 +1.10407238444e-002
2.06000000000e+009 -1.02139898737e-001 +1.46553289704e-002 -3.25671249490e-001 -7.48779486623e-001 -3.25671249490e-001 -7.48779486623e-001 -1.02139898737e-001 +1.46553289704e-002
2.08000000000e+009 -9.29489211406e-002 +1.67438573137e-002 -3.84719568109e-001 -7.19819669599e-001 -3.84719568109e-001 -7.19819669599e-001 -9.29489211406e-002 +1.67438573137e-002
2.10000000000e+009 -8.35135492675e-002 +1.72336452906e-002 -4.41305424215e-001 -6.86122788008e-001 -4.41305424215e-001 -6.86122788008e-001 -8.35135492675e-002 +1.72336452906e-002
2.12000000000e+009 -7.40860151867e-002 +1.60898683604e-002 -4.95026623146e-001 -6.47879265936e-001 -4.95026623146e-001 -6.47879265936e-001 -7.40860151867e-002 +1.60898683604e-002
2.14000000000e+009 -6.49242333609e-002 +1.33177068648e-002 -5.45491701639e-001 -6.05319063373e-001 -5.45491701639e-001 -6.05319063373e-001 -6.49242333609e-002 +1.33177068648e-002
2.16000000000e+009 -5.62852735406e-002 +8.96350953584e-003 -5.92325017805e-001 -5.58712081798e-001 -5.92325017805e-001 -5.58712081798e-001 -5.62852735406e-002 +8.96350953584e-003
2.18000000000e+009 -4.84185358974e-002 +3.11483214241e-003 -6.35172191514e-001 -5.08367680491e-001 -6.35172191514e-001 -5.08367680491e-001 -4.84185358974e-002 +3.11483214241e-003
2.20000000000e+009 -4.15588413817e-002 -4.10073603856e-003 -6.73705702969e-001 -4.54633194147e-001 -6.73705702969e-001 -4.54633194147e-001 -4.15588413817e-002 -4.10073603856e-003
2.22000000000e+009 -3.59196775648e-002 -1.25179989753e-002 -7.07630426183e-001 -3.97891389247e-001 -7.07630426183e-001 -3.97891389247e-001 -3.59196775648e-002 -1.25179989753e-002
