# HZ S RI R 50
2.00000000000e+007 -5.94015950447e-004 -3.38618829792e-003 +9.79384235153e-001 -9.24013552918e-002 +9.79384235153e-001 -9.24013552918e-002 -5.94015950447e-004 -3.38618829792e-003
4.00000000000e+007 -1.63090526582e-003 -6.56337879535e-003 +9.59413731632e-001 -1.82656783287e-001 +9.59413731632e-001 -1.82656783287e-001 -1.63090526582e-003 -6.56337879535e-003
6.00000000000e+007 -3.18080253230e-003 -9.42844007328e-003 +9.32658631079e-001 -2.70403764272e-001 +9.32658631079e-001 -2.70403764272e-001 -3.18080253230e-003 -9.42844007328e-003
8.00000000000e+007 -5.17301472028e-003 -1.18795082366e-002 +8.98677808391e-001 -3.55033025988e-001 +8.98677808391e-001 -3.55033025988e-001 -5.17301472028e-003 -1.18795082366e-002
1.00000000000e+008 -7.50944987413e-003 -1.38316166914e-002 +8.57533442557e-001 -4.35903699738e-001 +8.57533442557e-001 -4.35903699738e-001 -7.50944987413e-003 -1.38316166914e-002
1.20000000000e+008 -1.00739204242e-002 -1.52222675430e-002 +8.09482933296e-001 -5.12384299671e-001 +8.09482933296e-001 -5.12384299671e-001 -1.00739204242e-002 -1.52222675430e-002
1.40000000000e+008 -1.27384880226e-002 -1.60148503074e-002 +7.54898118385e-001 -5.83870673251e-001 +7.54898118385e-001 -5.83870673251e-001 -1.27384880226e-002 -1.60148503074e-002
1.60000000000e+008 -1.53695284548e-002 -1.62006099875e-002 +6.94233023392e-001 -6.49796653769e-001 +6.94233023392e-001 -6.49796653769e-001 -1.53695284548e-002 -1.62006099875e-002
1.80000000000e+008 -1.78337994768e-002 -1.57993030805e-002 +6.28006757750e-001 -7.09641442784e-001 +6.28006757750e-001 -7.09641442784e-001 -1.78337994768e-002 -1.57993030805e-002
2.00000000000e+008 -2.00044093039e-002 -1.48585949766e-002 +5.56792244339e-001 -7.62935148204e-001 +5.56792244339e-001 -7.62935148204e-001 -2.00044093039e-002 -1.48585949766e-002
2.20000000000e+008 -2.17664957666e-002 -1.34522587602e-002 +4.81207540982e-001 -8.09263105655e-001 +4.81207540982e-001 -8.09263105655e-001 -2.17664957666e-002 -1.34522587602e-002
2.40000000000e+008 -2.30224108674e-002 -1.16772645931e-002 +4.01908448644e-001 -8.48269314389e-001 +4.01908448644e-001 -8.48269314389e-001 -2.30224108674e-002 -1.16772645931e-002
2.60000000000e+008 -2.36962157123e-002 -9.64988249456e-003 +3.19581817113e-001 -8.79659190667e-001 +3.19581817113e-001 -8.79659190667e-001 -2.36962157123e-002 -9.64988249456e-003
2.80000000000e+008 -2.37373133185e-002 -7.50095329962e-003 +2.34939249475e-001 -9.03201775302e-001 +2.34939249475e-001 -9.03201775302e-001 -2.37373133185e-002 -7.50095329962e-003
3.00000000000e+008 -2.31230767104e-002 -5.37051037932e-003 +1.48711031623e-001 -9.18731489227e-001 +1.48711031623e-001 -9.18731489227e-001 -2.31230767104e-002 -5.37051037932e-003
3.20000000000e+008 -2.18603646678e-002 -3.40195721129e-003 +6.16401694359e-002 -9.26149496673e-001 +6.16401694359e-002 -9.26149496673e-001 -2.18603646678e-002 -3.40195721129e-003
3.40000000000e+008 -1.99858561114e-002 -1.73602244072e-003 -2.55235551362e-002 -9.25424704239e-001 -2.55235551362e-002 -9.25424704239e-001 -1.99858561114e-002 -1.73602244072e-003
3.60000000000e+008 -1.75651753986e-002 -5.04724208336e-004 -1.12029578663e-001 -9.16594394484e-001 -1.12029578663e-001 -9.16594394484e-001 -1.75651753986e-002 -5.04724208336e-004
3.80000000000e+008 -1.46908238976e-002 +1.74421222730e-004 -1.97132652686e-001 -8.99764465431e-001 -1.97132652686e-001 -8.99764465431e-001 -1.46908238976e-002 +1.74421222730e-004
4.00000000000e+008 -1.14789772023e-002 +2.03715631013e-004 -2.80099071741e-001 -8.75109224086e-001 -2.80099071741e-001 -8.75109224086e-001 -1.14789772023e-002 +2.03715631013e-004
4.20000000000e+008 -8.06525113058e-003 -4.90099117667e-004 -3.60213036954e-001 -8.42870664719e-001 -3.60213036954e-001 -8.42870664719e-001 -8.06525113058e-003 -4.90099117667e-004
4.40000000000e+008 -4.59958188020e-003 -1.95211176285e-003 -4.36783129827e-001 -8.03357152936e-001 -4.36783129827e-001 -8.03357152936e-001 -4.59958188020e-003 -1.95211176285e-003
4.60000000000e+008 -1.24040471088e-003 -4.19657494271e-003 -5.09148839446e-001 -7.56941436004e-001 -5.09148839446e-001 -7.56941436004e-001 -1.24040471088e-003 -4.19657494271e-003
4.80000000000e+008 +1.85165060511e-003 -7.20543393079e-003 -5.76687055265e-001 -7.04057909047e-001 -5.76687055265e-001 -7.04057909047e-001 +1.85165060511e-003 -7.20543393079e-003
5.00000000000e+008 +4.52030264021e-003 -1.09281391117e-002 -6.38818409729e-001 -6.45199085658e-001 -6.38818409729e-001 -6.45199085658e-001 +4.52030264021e-003 -1.09281391117e-002
5.20000000000e+008 +6.62013706344e-003 -1.52827797761e-002 -6.95013332971e-001 -5.80911249030e-001 -6.95013332971e-001 -5.80911249030e-001 +6.62013706344e-003 -1.52827797761e-002
5.40000000000e+008 +8.02283232303e-003 -2.01585219438e-002 -7.44797668252e-001 -5.11789294132e-001 -7.44797668252e-001 -5.11789294132e-001 +8.02283232303e-003 -2.01585219438e-002
5.60000000000e+008 +8.62282891823e-003 -2.54192764945e-002 -7.87757693591e-001 -4.38470809971e-001 -7.87757693591e-001 -4.38470809971e-001 +8.62282891823e-003 -2.54192764945e-002
5.80000000000e+008 +8.34219722263e-003 -3.09084689206e-002 -8.23544403222e-001 -3.61629490439e-001 -8.23544403222e-001 -3.61629490439e-001 +8.34219722263e-003 -3.09084689206e-002
6.00000000000e+008 +7.13448943601e-003 -3.64547317259e-002 -8.51876922091e-001 -2.81967999053e-001 -8.51876922091e-001 -2.81967999053e-001 +7.13448943601e-003 -3.64547317259e-002
6.20000000000e+008 +4.98740285394e-003 -4.18782979583e-002 -8.72544956634e-001 -2.00210443761e-001 -8.72544956634e-001 -2.00210443761e-001 +4.98740285394e-003 -4.18782979583e-002
6.40000000000e+008 +1.92413205934e-003 -4.69978422448e-002 -8.85410223224e-001 -1.17094639777e-001 -8.85410223224e-001 -1.17094639777e-001 +1.92413205934e-003 -4.69978422448e-002
6.60000000000e+008 -1.99665605512e-003 -5.16374959233e-002 -8.90406839244e-001 -3.33643490949e-002 -8.90406839244e-001 -3.33643490949e-002 -1.99665605512e-003 -5.16374959233e-002
6.80000000000e+008 -6.68223168787e-003 -5.56337564489e-002 -8.87540706950e-001 +5.02383164660e-002 -8.87540706950e-001 +5.02383164660e-002 -6.68223168787e-003 -5.56337564489e-002
7.00000000000e+008 -1.20085453110e-002 -5.88420181801e-002 -8.76887963606e-001 +1.32980155969e-001 -8.76887963606e-001 +1.32980155969e-001 -1.20085453110e-002 -5.88420181801e-002
7.20000000000e+008 -1.78242002892e-002 -6.11424709009e-002 -8.58592609092e-001 +2.14143656692e-001 -8.58592609092e-001 +2.14143656692e-001 -1.78242002892e-002 -6.11424709009e-002
7.40000000000e+008 -2.39555037855e-002 -6.24451421581e-002 -8.32863451317e-001 +2.93033175727e-001 -8.32863451317e-001 +2.93033175727e-001 -2.39555037855e-002 -6.24451421581e-002
7.60000000000e+008 -3.02124068484e-002 -6.26938972060e-002 -7.99970528072e-001 +3.68980454609e-001 -7.99970528072e-001 +3.68980454609e-001 -3.02124068484e-002 -6.26938972060e-002
7.80000000000e+008 -3.63951165210e-002 -6.18692533188e-002 -7.60241170075e-001 +4.41349439894e-001 -7.60241170075e-001 +4.41349439894e-001 -3.63951165210e-002 -6.18692533188e-002
8.00000000000e+008 -4.23011448221e-002 -5.99899106931e-002 -7.14055863695e-001 +5.09540426076e-001 -7.14055863695e-001 +5.09540426076e-001 -4.23011448221e-002 -5.99899106931e-002
8.20000000000e+008 -4.77325509220e-002 -5.71129477338e-002 -6.61844054005e-001 +5.72993576825e-001 -6.61844054005e-001 +5.72993576825e-001 -4.77325509220e-002 -5.71129477338e-002
8.40000000000e+008 -5.25031325652e-002 -5.33326722860e-002 -6.04080000855e-001 +6.31191913048e-001 -6.04080000855e-001 +6.31191913048e-001 -5.25031325652e-002 -5.33326722860e-002
8.60000000000e+008 -5.64453292938e-002 -4.87781611487e-002 -5.41278765182e-001 +6.83663879472e-001 -5.41278765182e-001 +6.83663879472e-001 -5.64453292938e-002 -4.87781611487e-002
8.80000000000e+008 -5.94166117478e-002 -4.36095574171e-002 -4.73992362337e-001 +7.29985613527e-001 -4.73992362337e-001 +7.29985613527e-001 -5.94166117478e-002 -4.36095574171e-002
9.00000000000e+008 -6.13051469337e-002 -3.80132289179e-002 -4.02806077146e-001 +7.69783040477e-001 -4.02806077146e-001 +7.69783040477e-001 -6.13051469337e-002 -3.80132289179e-002
9.20000000000e+008 -6.20345479640e-002 -3.21959216822e-002 -3.28334894860e-001 +8.02733906836e-001 -3.28334894860e-001 +8.02733906836e-001 -6.20345479640e-002 -3.21959216822e-002
9.40000000000e+008 -6.15675379918e-002 -2.63780707257e-002 -2.51219966213e-001 +8.28569840838e-001 -2.51219966213e-001 +8.28569840838e-001 -6.15675379918e-002 -2.63780707257e-002
9.60000000000e+008 -5.99083820928e-002 -2.07864569672e-002 -1.72124996563e-001 +8.47078495554e-001 -1.72124996563e-001 +8.47078495554e-001 -5.99083820928e-002 -2.07864569672e-002
9.80000000000e+008 -5.71039683554e-002 -1.56464242003e-002 -9.17324309928e-002 +8.58105789248e-001 -9.17324309928e-002 +8.58105789248e-001 -5.71039683554e-002 -1.56464242003e-002
1.00000000000e+009 -5.32434514034e-002 -1.11738933863e-002 -1.07393014567e-002 +8.61558211571e-001 -1.07393014567e-002 +8.61558211571e-001 -5.32434514034e-002 -1.11738933863e-002
1.02000000000e+009 -4.84564090408e-002 -7.56743223433e-003 +7.01473900497e-002 +8.57405116565e-001 +7.01473900497e-002 +8.57405116565e-001 -4.84564090408e-002 -7.56743223433e-003
1.04000000000e+009 -4.29095064512e-002 -5.00065443086e-003 +1.50215856138e-001 +8.45680877942e-001 +1.50215856138e-001 +8.45680877942e-001 -4.29095064512e-002 -5.00065443086e-003
1.06000000000e+009 -3.68017126061e-002 -3.61523271815e-003 +2.28755344392e-001 +8.26486742924e-001 +2.28755344392e-001 +8.26486742924e-001 -3.68017126061e-002 -3.61523271815e-003
1.08000000000e+009 -3.03581695638e-002 -3.51481061924e-003 +3.05062613188e-001 +7.99992191967e-001 +3.05062613188e-001 +7.99992191967e-001 -3.03581695638e-002 -3.51481061924e-003
1.10000000000e+009 -2.38228753837e-002 -4.76008624345e-003 +3.78449025253e-001 +7.66435596927e-001 +3.78449025253e-001 +7.66435596927e-001 -2.38228753837e-002 -4.76008624345e-003
1.12000000000e+009 -1.74504025137e-002 -7.36531593067e-003 +4.48248158587e-001 +7.26123972366e-001 +4.48248158587e-001 +7.26123972366e-001 -1.74504025137e-002 -7.36531593067e-003
1.14000000000e+009 -1.14969316897e-002 -1.12964440357e-002 +5.13823771581e-001 +6.79431635766e-001 +5.13823771581e-001 +6.79431635766e-001 -1.14969316897e-002 -1.12964440357e-002
1.16000000000e+009 -6.21093184233e-003 -1.64710077655e-002 +5.74577902082e-001 +6.26797632393e-001 +5.74577902082e-001 +6.26797632393e-001 -6.21093184233e-003 -1.64710077655e-002
1.18000000000e+009 -1.82385416853e-003 -2.27598941810e-002 +6.29958834668e-001 +5.68721837897e-001 +6.29958834668e-001 +5.68721837897e-001 -1.82385416853e-003 -2.27598941810e-002
1.20000000000e+009 +1.45877131128e-003 -2.99909435800e-002 +6.79468641863e-001 +5.05759722721e-001 +6.79468641863e-001 +5.05759722721e-001 +1.45877131128e-003 -2.99909435800e-002
1.22000000000e+009 +3.46544937614e-003 -3.79543044874e-002 +7.22669997702e-001 +4.38515841596e-001 +7.22669997702e-001 +4.38515841596e-001 +3.46544937614e-003 -3.79543044874e-002
1.24000000000e+009 +4.06568016715e-003 -4.64093566750e-002 +7.59191978164e-001 +3.67636192153e-001 +7.59191978164e-001 +3.67636192153e-001 +4.06568016715e-003 -4.64093566750e-002
1.26000000000e+009 +3.17545047001e-003 -5.50929369136e-002 +7.88734602627e-001 +2.93799661453e-001 +7.88734602627e-001 +2.93799661453e-001 +3.17545047001e-003 -5.50929369136e-002
1.28000000000e+009 +7.61006924898e-004 -6.37285342343e-002 +8.11071931156e-001 +2.17708840941e-001 +8.11071931156e-001 +2.17708840941e-001 +7.61006924898e-004 -6.37285342343e-002
1.30000000000e+009 -3.15925448433e-003 -7.20360730023e-002 +8.26053609357e-001 +1.40080532790e-001 +8.26053609357e-001 +1.40080532790e-001 -3.15925448433e-003 -7.20360730023e-002
1.32000000000e+009 -8.51485582544e-003 -7.97418769271e-002 +8.33604839123e-001 +6.16362895140e-002 +8.33604839123e-001 +6.16362895140e-002 -8.51485582544e-003 -7.97418769271e-002
1.34000000000e+009 -1.51852401463e-002 -8.65884067890e-002 +8.33724842293e-001 -1.69066776690e-002 +8.33724842293e-001 -1.69066776690e-002 -1.51852401463e-002 -8.65884067890e-002
1.36000000000e+009 -2.30035993802e-002 -9.23433881862e-002 +8.26483967151e-001 -9.48439174255e-002 +8.26483967151e-001 -9.48439174255e-002 -2.30035993802e-002 -9.23433881862e-002
1.38000000000e+009 -3.17623392519e-002 -9.68079897130e-002 +8.12019657967e-001 -1.71491232241e-001 +8.12019657967e-001 -1.71491232241e-001 -3.17623392519e-002 -9.68079897130e-002
1.40000000000e+009 -4.12199324472e-002 -9.98237715826e-002 +7.90531559719e-001 -2.46191065315e-001 +7.90531559719e-001 -2.46191065315e-001 -4.12199324472e-002 -9.98237715826e-002
1.42000000000e+009 -5.11088699766e-002 -1.01278193625e-001 +7.62276060486e-001 -3.18317677422e-001 +7.62276060486e-001 -3.18317677422e-001 -5.11088699766e-002 -1.01278193625e-001
1.44000000000e+009 -6.11443992905e-002 -1.01108543401e-001 +7.27560581221e-001 -3.87281093512e-001 +7.27560581221e-001 -3.87281093512e-001 -6.11443992905e-002 -1.01108543401e-001
1.46000000000e+009 -7.10337347182e-002 -9.93042140083e-002 +6.86737907734e-001 -4.52529878506e-001 +6.86737907734e-001 -4.52529878506e-001 -7.10337347182e-002 -9.93042140083e-002
1.48000000000e+009 -8.04854379502e-002 -9.59073223145e-002 +6.40200825024e-001 -5.13552872617e-001 +6.40200825024e-001 -5.13552872617e-001 -8.04854379502e-002 -9.59073223145e-002
1.50000000000e+009 -8.92186892354e-002 -9.10117088154e-002 +5.88377263521e-001 -5.69880074430e-001 +5.88377263521e-001 -5.69880074430e-001 -8.92186892354e-002 -9.10117088154e-002
1.52000000000e+009 -9.69721989544e-002 -8.47603987434e-002 +5.31726104542e-001 -6.21082901747e-001 +5.31726104542e-001 -6.21082901747e-001 -9.69721989544e-002 -8.47603987434e-002
1.54000000000e+009 -1.03512539710e-001 -7.73416309848e-002 +4.70733723087e-001 -6.66774084459e-001 +4.70733723087e-001 -6.66774084459e-001 -1.03512539710e-001 -7.73416309848e-002
1.56000000000e+009 -1.08641707248e-001 -6.89835786710e-002 +4.05911274260e-001 -7.06607449867e-001 +4.05911274260e-001 -7.06607449867e-001 -1.08641707248e-001 -6.89835786710e-002
1.58000000000e+009 -1.12203741742e-001 -5.99478960391e-002 +3.37792659194e-001 -7.40277849514e-001 +3.37792659194e-001 -7.40277849514e-001 -1.12203741742e-001 -5.99478960391e-002
1.60000000000e+009 -1.14090258023e-001 -5.05222339251e-002 +2.66933040940e-001 -7.67521448566e-001 +2.66933040940e-001 -7.67521448566e-001 -1.14090258023e-001 -5.05222339251e-002
1.62000000000e+009 -1.14244744464e-001 -4.10118747938e-002 +1.93907723542e-001 -7.88116555757e-001 +1.93907723542e-001 -7.88116555757e-001 -1.14244744464e-001 -4.10118747938e-002
1.64000000000e+009 -1.12665497207e-001 -3.17306508499e-002 +1.19311161419e-001 -8.01885115470e-001 +1.19311161419e-001 -8.01885115470e-001 -1.12665497207e-001 -3.17306508499e-002
1.66000000000e+009 -1.09407062194e-001 -2.29913279822e-002 +4.37558340358e-002 -8.08694915921e-001 +4.37558340358e-002 -8.08694915921e-001 -1.09407062194e-001 -2.29913279822e-002
1.68000000000e+009 -1.04580066076e-001 -1.50956652304e-002 -3.21292945793e-002 -8.08462491282e-001 -3.21292945793e-002 -8.08462491282e-001 -1.04580066076e-001 -1.50956652304e-002
1.70000000000e+009 -9.83493329268e-002 -8.32439366325e-003 -1.07701008046e-001 -8.01156614332e-001 -1.07701008046e-001 -8.01156614332e-001 -9.83493329268e-002 -8.32439366325e-003
1.72000000000e+009 -9.09302112462e-002 -2.92739769743e-003 -1.82305012763e-001 -7.86802194272e-001 -1.82305012763e-001 -7.86802194272e-001 -9.09302112462e-002 -2.92739769743e-003
1.74000000000e+009 -8.25830786456e-002 +8.85578247488e-004 -2.55280258934e-001 -7.65484317120e-001 -2.55280258934e-001 -7.65484317120e-001 -8.25830786456e-002 +8.85578247488e-004
1.76000000000e+009 -7.36060520573e-002 +2.95334017965e-003 -3.25964539367e-001 -7.37352100155e-001 -3.25964539367e-001 -7.37352100155e-001 -7.36060520573e-002 +2.95334017965e-003
1.78000000000e+009 -6.43260092455e-002 +3.17039207338e-003 -3.93701405960e-001 -7.02621984244e-001 -3.93701405960e-001 -7.02621984244e-001 -6.43260092455e-002 +3.17039207338e-003
1.80000000000e+009 -5.50881200366e-002 +1.49243791612e-003 -4.57848335411e-001 -6.61580065866e-001 -4.57848335411e-001 -6.61580065866e-001 -5.50881200366e-002 +1.49243791612e-003
1.82000000000e+009 -4.62441871244e-002 -2.06012039748e-003 -5.17785957999e-001 -6.14583080228e-001 -5.17785957999e-001 -6.14583080228e-001 -4.62441871244e-002 -2.06012039748e-003
1.84000000000e+009 -3.81401978003e-002 -7.40099266809e-003 -5.72928046174e-001 -5.62057692347e-001 -5.72928046174e-001 -5.62057692347e-001 -3.81401978003e-002 -7.40099266809e-003
1.86000000000e+009 -3.11035785494e-002 -1.43793325271e-002 -6.22731854638e-001 -5.04497834912e-001 -6.22731854638e-001 -5.04497834912e-001 -3.11035785494e-002 -1.43793325271e-002
1.88000000000e+009 -2.54307122994e-002 -2.27836883943e-002 -6.66708323012e-001 -4.42459947003e-001 -6.66708323012e-001 -4.42459947003e-001 -2.54307122994e-002 -2.27836883943e-002
1.90000000000e+009 -2.13753121453e-002 -3.23485275029e-002 -7.04431607345e-001 -3.76556108241e-001 -7.04431607345e-001 -3.76556108241e-001 -2.13753121453e-002 -3.23485275029e-002
1.92000000000e+009 -1.91382372400e-002 -4.27631332750e-002 -7.35547406018e-001 -3.07445216733e-001 -7.35547406018e-001 -3.07445216733e-001 -1.91382372400e-002 -4.27631332750e-002
1.94000000000e+009 -1.88592822675e-002 -5.36825249312e-002 -7.59779593034e-001 -2.35822510973e-001 -7.59779593034e-001 -2.35822510973e-001 -1.88592822675e-002 -5.36825249312e-002
1.96000000000e+009 -2.06113730966e-002 -6.47399150401e-002 -7.76934765485e-001 -1.62407869654e-001 -7.76934765485e-001 -1.62407869654e-001 -2.06113730966e-002 -6.47399150401e-002
1.98000000000e+009 -2.43974652699e-002 -7.55601203075e-002 -7.86904444493e-001 -8.79334238378e-002 -7.86904444493e-001 -8.79334238378e-002 -2.43974652699e-002 -7.55601203075e-002
2.00000000000e+009 -3.01502814156e-002 -8.57732843887e-002 -7.89664827399e-001 -1.31310718002e-002 -7.89664827399e-001 -1.31310718002e-002 -3.01502814156e-002 -8.57732843887e-002
2.02000000000e+009 -3.77348543578e-002 -9.50282647428e-002 -7.85274157153e-001 +6.12795083259e-002 -7.85274157153e-001 +6.12795083259e-002 -3.77348543578e-002 -9.50282647428e-002
2.04000000000e+009 -4.69536815545e-002 -1.03005078210e-001 -7.73867935422e-001 +1.34601799142e-001 -7.73867935422e-001 +1.34601799142e-001 -4.69536815545e-002 -1.03005078210e-001
2.06000000000e+009 -5.75541589555e-002 -1.09425885698e-001 -7.55652342933e-001 +2.06171879902e-001 -7.55652342933e-001 +2.06171879902e-001 -5.75541589555e-002 -1.09425885698e-001
2.08000000000e+009 -6.92378602059e-002 -1.14064113806e-001 -7.30896331736e-001 +2.75366024765e-001 -7.30896331736e-001 +2.75366024765e-001 -6.92378602059e-002 -1.14064113806e-001
2.10000000000e+009 -8.16711669660e-002 -1.16751446159e-001 -6.99922911914e-001 +3.41606274976e-001 -6.99922911914e-001 +3.41606274976e-001 -8.16711669660e-002 -1.16751446159e-001
2.12000000000e+009 -9.44967389756e-002 -1.17382554644e-001 -6.63100168212e-001 +4.04363945990e-001 -6.63100168212e-001 +4.04363945990e-001 -9.44967389756e-002 -1.17382554644e-001
2.14000000000e+009 -1.07345334182e-001 -1.15917567093e-001 -6.20832513098e-001 +4.63161170932e-001 -6.20832513098e-001 +4.63161170932e-001 -1.07345334182e-001 -1.15917567093e-001
2.16000000000e+009 -1.19847541578e-001 -1.12382372718e-001 -5.73552619225e-001 +5.17570702415e-001 -5.73552619225e-001 +5.17570702415e-001 -1.19847541578e-001 -1.12382372718e-001
2.18000000000e+009 -1.31645061817e-001 -1.06866943305e-001 -5.21714385471e-001 +5.67214288414e-001 -5.21714385471e-001 +5.67214288414e-001 -1.31645061817e-001 -1.06866943305e-001
2.20000000000e+009 -1.42401251884e-001 -9.95218945669e-002 -4.65787186672e-001 +6.11760001236e-001 -4.65787186672e-001 +6.11760001236e-001 -1.42401251884e-001 -9.95218945669e-002
2.22000000000e+009 -1.51810729694e-001 -9.05535298107e-002 -4.06251547278e-001 +6.50918931899e-001 -4.06251547278e-001 +6.50918931899e-001 -1.51810729694e-001 -9.05535298107e-002
