! 8/9/2025 3:00:00 PM
! This is a measured stripline on PCB, 238mm in length. Structure: VNA->COAX->stripline->COAX->VNA
! CHANNEL.1
! TR.MEASUREMENT
! CORRECTED.DATA
! RF.CORRECTION: FULL.FOUR.PORT.CAL.PORT.1.2.3.4
! AVERAGING.OFF
! IF.BANDWIDTH: 1KHZ
! SWEEPTYPE:  FREQ.SWEEP(Linear)
! Reference Plane Port Info
! PORT:              PORT1              PORT2             
! DISTANCE:          0  m               0  m              
! TIME:              0  s               0  s              
! PHASE.OFFSET:      0  deg.            0  deg.           
! LOSS:              0  dB              0  dB             
! REF.LOSS:          0  dB              0  dB             
! REF.FREQ:          0  Hz              0  Hz             
! Power Info
! POWER:             -10  dBm           -10  dBm          
! EFF.POWER:         -10  dBm           -10  dBm          
! SOURCE.ATTEN:      0  dB              0  dB             
! TEST.ATTEN:        0  dB              0  dB             
! PORTZ: Port1:50 Port2:50
# GHZ S RI R 50
! FREQ.GHZ         S11RE         S11IM         S21RE         S21IM         S12RE         S12IM         S22RE         S22IM         
!; PortSelection: Port_12 (1-->1,2-->2)
   0.010000000     0.0213675   -0.0160679     0.9701723   -0.1023393     0.9709032   -0.1027071     0.0240406   -0.0175818 
   0.020000000     0.0187068   -0.0350395     0.9511693   -0.2004578     0.9515903   -0.2004076     0.0201181   -0.0362582 
   0.030000000     0.0125919   -0.0537312     0.9221931   -0.2947628     0.9224705   -0.2945080     0.0128968   -0.0542902 
   0.040000000     0.0025191   -0.0712337     0.8846678   -0.3841522     0.8838698   -0.3844297     0.0021091   -0.0718772 
   0.050000000    -0.0108589   -0.0869457     0.8377721   -0.4689799     0.8386592   -0.4688537    -0.0125162   -0.0871984 
   0.060000000    -0.0273012   -0.0992869     0.7834505   -0.5471599     0.7828662   -0.5470503    -0.0282237   -0.0989220 
   0.070000000    -0.0459172   -0.1088398     0.7225226   -0.6188958     0.7218007   -0.6181397    -0.0475226   -0.1086989 
   0.080000000    -0.0653436   -0.1146972     0.6548720   -0.6827617     0.6549810   -0.6828932    -0.0679901   -0.1133941 
   0.090000000    -0.0854167   -0.1167615     0.5827300   -0.7399313     0.5817938   -0.7399041    -0.0881656   -0.1149734 
   0.100000000    -0.1051297   -0.1154406     0.5054495   -0.7894945     0.5050362   -0.7888662    -0.1077804   -0.1128645 
   0.110000000    -0.1240792   -0.1101751     0.4250385   -0.8298376     0.4250634   -0.8296270    -0.1272755   -0.1067907 
   0.120000000    -0.1414664   -0.1021511     0.3424141   -0.8622547     0.3420893   -0.8629742    -0.1445615   -0.0972243 
   0.130000000    -0.1568272   -0.0913415     0.2573883   -0.8868911     0.2570087   -0.8870966    -0.1598499   -0.0852158 
   0.140000000    -0.1705264   -0.0775499     0.1713631   -0.9040088     0.1710667   -0.9034914    -0.1726739   -0.0700827 
   0.150000000    -0.1810988   -0.0618250     0.0845215   -0.9115511     0.0847981   -0.9124085    -0.1824027   -0.0532355 
   0.160000000    -0.1885484   -0.0447731    -0.0008191   -0.9119647    -0.0015932   -0.9118591    -0.1884479   -0.0360076 
   0.170000000    -0.1929954   -0.0264807    -0.0854922   -0.9046025    -0.0855001   -0.9041278    -0.1924543   -0.0169963 
   0.180000000    -0.1939001   -0.0086656    -0.1691328   -0.8898779    -0.1698412   -0.8892950    -0.1923812    0.0013042 
   0.190000000    -0.1916095    0.0085219    -0.2507679   -0.8682365    -0.2507182   -0.8673334    -0.1892280    0.0197701 
   0.200000000    -0.1861519    0.0249519    -0.3301372   -0.8395192    -0.3297832   -0.8396922    -0.1823537    0.0358694 
   0.210000000    -0.1773620    0.0396909    -0.4060922   -0.8035713    -0.4058453   -0.8030813    -0.1717925    0.0512480 
   0.220000000    -0.1661266    0.0523396    -0.4787652   -0.7609564    -0.4786391   -0.7606053    -0.1598570    0.0630891 
   0.230000000    -0.1527712    0.0630777    -0.5468977   -0.7124413    -0.5465223   -0.7123227    -0.1456579    0.0733596 
   0.240000000    -0.1377554    0.0713032    -0.6104860   -0.6574288    -0.6110210   -0.6576410    -0.1299530    0.0814835 
   0.250000000    -0.1219006    0.0768801    -0.6690028   -0.5969428    -0.6691449   -0.5968180    -0.1134715    0.0859993 
   0.260000000    -0.1055826    0.0791170    -0.7220603   -0.5314924    -0.7217972   -0.5304785    -0.0965463    0.0864478 
   0.270000000    -0.0895918    0.0783584    -0.7691653   -0.4607512    -0.7691699   -0.4602225    -0.0804402    0.0853172 
   0.280000000    -0.0739953    0.0745523    -0.8091217   -0.3856452    -0.8087825   -0.3859291    -0.0648770    0.0804212 
   0.290000000    -0.0592481    0.0675517    -0.8425243   -0.3074175    -0.8417034   -0.3071316    -0.0499063    0.0718826 
   0.300000000    -0.0462411    0.0570145    -0.8676988   -0.2256822    -0.8680558   -0.2256139    -0.0369819    0.0609605 
   0.310000000    -0.0356643    0.0442296    -0.8840026   -0.1417416    -0.8845550   -0.1409090    -0.0270848    0.0476063 
   0.320000000    -0.0277554    0.0291887    -0.8941255   -0.0561437    -0.8934489   -0.0557711    -0.0203045    0.0322592 
   0.330000000    -0.0227721    0.0134027    -0.8942481    0.0303444    -0.8945063    0.0295846    -0.0162564    0.0161368 
   0.340000000    -0.0207114   -0.0030108    -0.8864585    0.1158515    -0.8858923    0.1159524    -0.0149228   -0.0008360 
   0.350000000    -0.0216549   -0.0190707    -0.8701467    0.2004668    -0.8699107    0.1998906    -0.0176183   -0.0172519 
   0.360000000    -0.0254014   -0.0346024    -0.8454936    0.2826814    -0.8453745    0.2821658    -0.0227760   -0.0324984 
   0.370000000    -0.0323390   -0.0488403    -0.8129315    0.3615707    -0.8122829    0.3617740    -0.0308968   -0.0467856 
   0.380000000    -0.0427280   -0.0619344    -0.7724629    0.4373774    -0.7719833    0.4379641    -0.0418131   -0.0587070 
   0.390000000    -0.0551657   -0.0726721    -0.7247620    0.5084664    -0.7247812    0.5085073    -0.0556614   -0.0687403 
   0.400000000    -0.0698842   -0.0812833    -0.6708747    0.5730554    -0.6696883    0.5736688    -0.0707361   -0.0765754 
   0.410000000    -0.0861616   -0.0872266    -0.6108662    0.6323408    -0.6106601    0.6333729    -0.0880067   -0.0813582 
   0.420000000    -0.1032403   -0.0898993    -0.5462108    0.6851044    -0.5462450    0.6859099    -0.1053144   -0.0823964 
   0.430000000    -0.1198477   -0.0889730    -0.4779737    0.7317358    -0.4772556    0.7316961    -0.1223642   -0.0796452 
   0.440000000    -0.1356678   -0.0854178    -0.4054950    0.7705320    -0.4045334    0.7706604    -0.1379550   -0.0746035 
   0.450000000    -0.1504205   -0.0794162    -0.3300141    0.8032702    -0.3288426    0.8035675    -0.1524725   -0.0668129 
   0.460000000    -0.1633459   -0.0707491    -0.2521543    0.8280859    -0.2533180    0.8280958    -0.1652495   -0.0559737 
   0.470000000    -0.1745858   -0.0598127    -0.1739382    0.8443778    -0.1732213    0.8448671    -0.1758300   -0.0423051 
   0.480000000    -0.1838628   -0.0462514    -0.0941039    0.8547518    -0.0935647    0.8546232    -0.1837016   -0.0279105 
   0.490000000    -0.1911769   -0.0315427    -0.0145710    0.8576912    -0.0140833    0.8563424    -0.1900098   -0.0116564 
   0.500000000    -0.1959703   -0.0159958     0.0651459    0.8528699     0.0652874    0.8529240    -0.1930352    0.0035765 
   0.510000000    -0.1975867    0.0003909     0.1431181    0.8413866     0.1431970    0.8410012    -0.1932625    0.0223967 
   0.520000000    -0.1970706    0.0166246     0.2192450    0.8239512     0.2202466    0.8228988    -0.1900662    0.0399029 
   0.530000000    -0.1931219    0.0320937     0.2938603    0.7988330     0.2948135    0.7980297    -0.1840243    0.0553807 
   0.540000000    -0.1860355    0.0459508     0.3660627    0.7678400     0.3662741    0.7674488    -0.1747065    0.0688226 
   0.550000000    -0.1761684    0.0582493     0.4362646    0.7300364     0.4359939    0.7302884    -0.1635725    0.0809049 
   0.560000000    -0.1647890    0.0678868     0.5014535    0.6865866     0.5020118    0.6867219    -0.1500797    0.0892500 
   0.570000000    -0.1512933    0.0765072     0.5625494    0.6370753     0.5629028    0.6360073    -0.1348152    0.0971028 
   0.580000000    -0.1365356    0.0818911     0.6191008    0.5824247     0.6214151    0.5813379    -0.1185895    0.1014498 
   0.590000000    -0.1215284    0.0848143     0.6720510    0.5225500     0.6717612    0.5211235    -0.1025356    0.1027193 
   0.600000000    -0.1058919    0.0864067     0.7186291    0.4562044     0.7180016    0.4571209    -0.0862214    0.1014308 
   0.610000000    -0.0916378    0.0847690     0.7571265    0.3874042     0.7591124    0.3866141    -0.0709258    0.0980902 
   0.620000000    -0.0766658    0.0808785     0.7919987    0.3151289     0.7909045    0.3130461    -0.0555582    0.0920036 
   0.630000000    -0.0639686    0.0733032     0.8185884    0.2384890     0.8175851    0.2383726    -0.0429921    0.0823452 
   0.640000000    -0.0526114    0.0627639     0.8366852    0.1597946     0.8383395    0.1589940    -0.0323973    0.0706046 
   0.650000000    -0.0433177    0.0497567     0.8492943    0.0804156     0.8488428    0.0786243    -0.0247505    0.0558859 
   0.660000000    -0.0369743    0.0356950     0.8533256   -0.0023144     0.8516588   -0.0027703    -0.0203581    0.0400600 
   0.670000000    -0.0328137    0.0186614     0.8472212   -0.0831978     0.8497484   -0.0843402    -0.0181893    0.0224139 
   0.680000000    -0.0322600    0.0026034     0.8369113   -0.1623878     0.8344938   -0.1663202    -0.0202088    0.0057949 
   0.690000000    -0.0341347   -0.0120594     0.8175766   -0.2451163     0.8144238   -0.2436672    -0.0246252   -0.0101472 
   0.700000000    -0.0374345   -0.0257861     0.7870926   -0.3215599     0.7883014   -0.3206955    -0.0315958   -0.0240278 
   0.710000000    -0.0442617   -0.0384021     0.7514714   -0.3924843     0.7520849   -0.3950762    -0.0407809   -0.0349214 
   0.720000000    -0.0527800   -0.0495716     0.7099721   -0.4632369     0.7081139   -0.4620918    -0.0504210   -0.0444458 
   0.730000000    -0.0646142   -0.0589513     0.6594423   -0.5278342     0.6601989   -0.5283808    -0.0634413   -0.0522447 
   0.740000000    -0.0789297   -0.0670925     0.6071753   -0.5860239     0.6045789   -0.5873696    -0.0808161   -0.0576626 
   0.750000000    -0.0943988   -0.0717388     0.5463904   -0.6408958     0.5448529   -0.6391489    -0.0976854   -0.0593602 
   0.760000000    -0.1112418   -0.0736726     0.4813368   -0.6859465     0.4816063   -0.6861665    -0.1149499   -0.0580218 
   0.770000000    -0.1277086   -0.0740066     0.4138317   -0.7257933     0.4118731   -0.7273851    -0.1313625   -0.0542593 
   0.780000000    -0.1427291   -0.0713276     0.3432476   -0.7596198     0.3412332   -0.7593334    -0.1471411   -0.0471457 
   0.790000000    -0.1561939   -0.0650784     0.2685883   -0.7868319     0.2692467   -0.7857100    -0.1596243   -0.0385093 
   0.800000000    -0.1674028   -0.0575598     0.1947331   -0.8047786     0.1939532   -0.8060579    -0.1696365   -0.0276895 
   0.810000000    -0.1774087   -0.0478282     0.1190241   -0.8175005     0.1178268   -0.8183425    -0.1779449   -0.0139389 
   0.820000000    -0.1849831   -0.0352330     0.0409521   -0.8239857     0.0406098   -0.8232933    -0.1823306    0.0014699 
   0.830000000    -0.1919093   -0.0215340    -0.0345755   -0.8217618    -0.0360090   -0.8216284    -0.1851379    0.0183520 
   0.840000000    -0.1967464   -0.0061204    -0.1106572   -0.8132243    -0.1109909   -0.8129080    -0.1857909    0.0353178 
   0.850000000    -0.1993637    0.0093875    -0.1847577   -0.7979142    -0.1850068   -0.7974016    -0.1844276    0.0529611 
   0.860000000    -0.1996560    0.0244696    -0.2567003   -0.7770066    -0.2573171   -0.7764437    -0.1796023    0.0700010 
   0.870000000    -0.1973922    0.0386181    -0.3267859   -0.7491947    -0.3270307   -0.7487055    -0.1724612    0.0846425 
   0.880000000    -0.1921676    0.0508546    -0.3931945   -0.7154222    -0.3940330   -0.7154172    -0.1618996    0.0977388 
   0.890000000    -0.1848157    0.0617696    -0.4573720   -0.6761820    -0.4583774   -0.6753066    -0.1494139    0.1081010 
   0.900000000    -0.1740844    0.0707036    -0.5182997   -0.6310613    -0.5182966   -0.6302142    -0.1346832    0.1155982 
   0.910000000    -0.1629189    0.0780200    -0.5741611   -0.5805007    -0.5749332   -0.5805598    -0.1176235    0.1208240 
   0.920000000    -0.1493806    0.0838822    -0.6258699   -0.5248234    -0.6262943   -0.5240045    -0.0997956    0.1232476 
   0.930000000    -0.1359058    0.0880505    -0.6718094   -0.4651679    -0.6733225   -0.4638959    -0.0828499    0.1231744 
   0.940000000    -0.1224338    0.0899359    -0.7130489   -0.4007755    -0.7122256   -0.3981331    -0.0663291    0.1216187 
   0.950000000    -0.1090698    0.0901448    -0.7476547   -0.3314430    -0.7475525   -0.3317551    -0.0498315    0.1176114 
   0.960000000    -0.0971376    0.0874680    -0.7753540   -0.2602186    -0.7776626   -0.2595206    -0.0349947    0.1096468 
   0.970000000    -0.0867722    0.0825735    -0.7980446   -0.1873812    -0.7978683   -0.1846045    -0.0223521    0.0989110 
   0.980000000    -0.0776953    0.0745973    -0.8127833   -0.1102252    -0.8125615   -0.1102506    -0.0118929    0.0842639 
   0.990000000    -0.0698976    0.0637950    -0.8194071   -0.0338220    -0.8203511   -0.0316503    -0.0041839    0.0683594 
   1.000000000    -0.0650190    0.0515946    -0.8203489    0.0446073    -0.8191878    0.0455167     0.0010394    0.0505904 
   1.010000000    -0.0613379    0.0387222    -0.8117491    0.1244302    -0.8118617    0.1228046     0.0038479    0.0326425 
   1.020000000    -0.0601877    0.0267671    -0.7951973    0.1990040    -0.7970262    0.2002298     0.0028270    0.0145638 
   1.030000000    -0.0608073    0.0149406    -0.7734547    0.2738383    -0.7716452    0.2760120    -0.0004466   -0.0021826 
   1.040000000    -0.0634833    0.0040813    -0.7432755    0.3474420    -0.7420329    0.3462403    -0.0067069   -0.0169425 
   1.050000000    -0.0686978   -0.0052131    -0.7042226    0.4149986    -0.7063276    0.4163512    -0.0151894   -0.0300825 
   1.060000000    -0.0756469   -0.0132743    -0.6629114    0.4796527    -0.6602072    0.4815523    -0.0269861   -0.0412328 
   1.070000000    -0.0848164   -0.0197254    -0.6124491    0.5418363    -0.6109825    0.5396081    -0.0409700   -0.0501369 
   1.080000000    -0.0964517   -0.0251402    -0.5559330    0.5940484    -0.5570117    0.5959495    -0.0576068   -0.0566826 
   1.090000000    -0.1098271   -0.0284025    -0.4969216    0.6422510    -0.4941015    0.6441097    -0.0762358   -0.0609224 
   1.100000000    -0.1229802   -0.0289500    -0.4323421    0.6859936    -0.4314564    0.6838907    -0.0937578   -0.0628218 
   1.110000000    -0.1361654   -0.0271167    -0.3631406    0.7200699    -0.3656998    0.7211963    -0.1107881   -0.0616785 
   1.120000000    -0.1472543   -0.0233420    -0.2960732    0.7492816    -0.2933590    0.7510085    -0.1265015   -0.0576830 
   1.130000000    -0.1568273   -0.0172861    -0.2229818    0.7731184    -0.2216535    0.7722819    -0.1408392   -0.0498448 
   1.140000000    -0.1643749   -0.0093667    -0.1496908    0.7885764    -0.1486767    0.7879755    -0.1512407   -0.0402888 
   1.150000000    -0.1707370    0.0003155    -0.0758837    0.7970885    -0.0745336    0.7968522    -0.1607694   -0.0284597 
   1.160000000    -0.1754458    0.0120768    -0.0002135    0.7992665    -0.0006021    0.7980661    -0.1680182   -0.0136893 
   1.170000000    -0.1787542    0.0247609     0.0733897    0.7923314     0.0732983    0.7949915    -0.1729174    0.0017156 
   1.180000000    -0.1806486    0.0375354     0.1438176    0.7811668     0.1486566    0.7820163    -0.1770538    0.0180080 
   1.190000000    -0.1807056    0.0509977     0.2163369    0.7655337     0.2178886    0.7612919    -0.1777304    0.0349805 
   1.200000000    -0.1775849    0.0639031     0.2866568    0.7400730     0.2849178    0.7390072    -0.1761348    0.0508577 
   1.210000000    -0.1726066    0.0749539     0.3522326    0.7083566     0.3526459    0.7098380    -0.1714070    0.0644601 
   1.220000000    -0.1649288    0.0844980     0.4153495    0.6739476     0.4172377    0.6735402    -0.1644941    0.0762328 
   1.230000000    -0.1554526    0.0924377     0.4757342    0.6335580     0.4768780    0.6321958    -0.1547746    0.0863746 
   1.240000000    -0.1433772    0.0986329     0.5319906    0.5862679     0.5326282    0.5852294    -0.1426326    0.0942286 
   1.250000000    -0.1299934    0.1033753     0.5841836    0.5340392     0.5844586    0.5338027    -0.1291526    0.1002993 
   1.260000000    -0.1158306    0.1061676     0.6311947    0.4776955     0.6318250    0.4770109    -0.1137216    0.1043440 
   1.270000000    -0.1018912    0.1072244     0.6730467    0.4174561     0.6743473    0.4159386    -0.0991987    0.1061441 
   1.280000000    -0.0886034    0.1060843     0.7101356    0.3529992     0.7101869    0.3518524    -0.0852363    0.1059338 
   1.290000000    -0.0762956    0.1028796     0.7406160    0.2856505     0.7404824    0.2841417    -0.0715567    0.1039264 
   1.300000000    -0.0652904    0.0969270     0.7653425    0.2148057     0.7642089    0.2138381    -0.0601213    0.0989357 
   1.310000000    -0.0557929    0.0882011     0.7818521    0.1417193     0.7821211    0.1411006    -0.0496206    0.0903320 
   1.320000000    -0.0480533    0.0770156     0.7925540    0.0674420     0.7919188    0.0665881    -0.0416743    0.0791046 
   1.330000000    -0.0416134    0.0635595     0.7953678   -0.0076872     0.7955533   -0.0085628    -0.0360274    0.0653504 
   1.340000000    -0.0372887    0.0482901     0.7908722   -0.0830313     0.7911981   -0.0840672    -0.0331239    0.0510648 
   1.350000000    -0.0349935    0.0326231     0.7804418   -0.1583311     0.7797333   -0.1588439    -0.0320634    0.0363563 
   1.360000000    -0.0352377    0.0171325     0.7610538   -0.2314373     0.7605312   -0.2321561    -0.0335366    0.0217222 
   1.370000000    -0.0380854    0.0029620     0.7350930   -0.3031690     0.7346237   -0.3039557    -0.0375738    0.0086791 
   1.380000000    -0.0426726   -0.0096389     0.7023524   -0.3715218     0.7016695   -0.3721031    -0.0445550   -0.0022824 
   1.390000000    -0.0496195   -0.0205168     0.6625326   -0.4359395     0.6619905   -0.4370606    -0.0529696   -0.0112571 
   1.400000000    -0.0593734   -0.0301310     0.6175280   -0.4963995     0.6160469   -0.4974605    -0.0634580   -0.0184373 
   1.410000000    -0.0719204   -0.0373900     0.5664130   -0.5518701     0.5647907   -0.5520308    -0.0768378   -0.0241911 
   1.420000000    -0.0857013   -0.0430749     0.5095624   -0.6030020     0.5095421   -0.6016905    -0.0909189   -0.0266980 
   1.430000000    -0.1020139   -0.0465893     0.4480685   -0.6454751     0.4497549   -0.6464825    -0.1066821   -0.0269987 
   1.440000000    -0.1179943   -0.0480445     0.3857461   -0.6829453     0.3840955   -0.6844991    -0.1221475   -0.0246886 
   1.450000000    -0.1340721   -0.0472745     0.3188986   -0.7155195     0.3172442   -0.7144454    -0.1362322   -0.0194613 
   1.460000000    -0.1485150   -0.0436305     0.2499931   -0.7399508     0.2481360   -0.7392706    -0.1482778   -0.0124983 
   1.470000000    -0.1610523   -0.0378520     0.1785120   -0.7588513     0.1787735   -0.7557018    -0.1592451   -0.0022805 
   1.480000000    -0.1717458   -0.0303758     0.1054490   -0.7683908     0.1079702   -0.7685563    -0.1679075    0.0097539 
   1.490000000    -0.1811357   -0.0207179     0.0358407   -0.7716997     0.0344047   -0.7748929    -0.1736174    0.0242970 
   1.500000000    -0.1893236   -0.0083945    -0.0348663   -0.7712919    -0.0390459   -0.7702425    -0.1769159    0.0394590 
   1.510000000    -0.1954526    0.0051917    -0.1073191   -0.7644049    -0.1081442   -0.7612932    -0.1787041    0.0551913 
