! 8/9/2025 3:00:00 PM
! This is a measured stripline on PCB, 119mm in length. Structure: VNA->COAX->stripline->COAX->VNA
! CHANNEL.1
! TR.MEASUREMENT
! CORRECTED.DATA
! RF.CORRECTION: FULL.FOUR.PORT.CAL.PORT.1.2.3.4
! AVERAGING.OFF
! IF.BANDWIDTH: 1KHZ
! SWEEPTYPE:  FREQ.SWEEP(Linear)
! Reference Plane Port Info
! PORT:              PORT1              PORT2             
! DISTANCE:          0  m               0  m              
! TIME:              0  s               0  s              
! PHASE.OFFSET:      0  deg.            0  deg.           
! LOSS:              0  dB              0  dB             
! REF.LOSS:          0  dB              0  dB             
! REF.FREQ:          0  Hz              0  Hz             
! Power Info
! POWER:             -10  dBm           -10  dBm          
! EFF.POWER:         -10  dBm           -10  dBm          
! SOURCE.ATTEN:      0  dB              0  dB             
! TEST.ATTEN:        0  dB              0  dB             
! PORTZ: Port1:50 Port2:50
# GHZ S RI R 50
! FREQ.GHZ         S11RE         S11IM         S21RE         S21IM         S12RE         S12IM         S22RE         S22IM         
!; PortSelection: Port_12 (1-->1,2-->2)
   0.010000000     0.0111911   -0.0071621     0.9857288   -0.0537181     0.9863505   -0.0543744     0.0138532   -0.0084305 
   0.020000000     0.0113758   -0.0164791     0.9795527   -0.1061343     0.9798951   -0.1061845     0.0130995   -0.0173783 
   0.030000000     0.0107264   -0.0256992     0.9709486   -0.1569880     0.9710381   -0.1569803     0.0114716   -0.0262034 
   0.040000000     0.0087029   -0.0352602     0.9596826   -0.2065943     0.9593192   -0.2072246     0.0092712   -0.0361126 
   0.050000000     0.0057882   -0.0449857     0.9457430   -0.2563220     0.9464379   -0.2562552     0.0054998   -0.0460473 
   0.060000000     0.0014286   -0.0540402     0.9293404   -0.3040895     0.9289612   -0.3043160     0.0017895   -0.0543624 
   0.070000000    -0.0038716   -0.0633489     0.9110097   -0.3506175     0.9103556   -0.3505255    -0.0033748   -0.0643988 
   0.080000000    -0.0099122   -0.0718079     0.8897171   -0.3958428     0.8893411   -0.3959283    -0.0105118   -0.0727673 
   0.090000000    -0.0168855   -0.0793712     0.8663354   -0.4401220     0.8663992   -0.4401599    -0.0172242   -0.0805799 
   0.100000000    -0.0243193   -0.0864741     0.8413736   -0.4831928     0.8408365   -0.4826263    -0.0243511   -0.0875014 
   0.110000000    -0.0327259   -0.0927931     0.8136697   -0.5243330     0.8136778   -0.5238982    -0.0331891   -0.0940472 
   0.120000000    -0.0412950   -0.0981505     0.7844739   -0.5628665     0.7845472   -0.5634809    -0.0421597   -0.0991118 
   0.130000000    -0.0500041   -0.1028442     0.7534573   -0.6008177     0.7532415   -0.6011476    -0.0513934   -0.1036322 
   0.140000000    -0.0599088   -0.1069316     0.7209595   -0.6369603     0.7202119   -0.6366250    -0.0616560   -0.1070305 
   0.150000000    -0.0700930   -0.1096705     0.6859294   -0.6708294     0.6862755   -0.6705018    -0.0720764   -0.1094949 
   0.160000000    -0.0807416   -0.1112576     0.6501750   -0.7025073     0.6495641   -0.7025664    -0.0818152   -0.1103303 
   0.170000000    -0.0919281   -0.1123165     0.6124664   -0.7322095     0.6113825   -0.7314325    -0.0928139   -0.1115494 
   0.180000000    -0.1026652   -0.1120345     0.5739075   -0.7596707     0.5729744   -0.7591835    -0.1035259   -0.1110660 
   0.190000000    -0.1131808   -0.1110178     0.5346457   -0.7851149     0.5335193   -0.7850076    -0.1147501   -0.1102467 
   0.200000000    -0.1235619   -0.1091393     0.4937274   -0.8091426     0.4934190   -0.8088073    -0.1247910   -0.1077105 
   0.210000000    -0.1332147   -0.1060688     0.4522517   -0.8303577     0.4518336   -0.8296556    -0.1355145   -0.1036398 
   0.220000000    -0.1425227   -0.1022749     0.4094689   -0.8497236     0.4094654   -0.8492411    -0.1437891   -0.0995424 
   0.230000000    -0.1512879   -0.0972024     0.3666423   -0.8664460     0.3669445   -0.8663460    -0.1525247   -0.0946347 
   0.240000000    -0.1594013   -0.0913877     0.3236067   -0.8814271     0.3230625   -0.8812444    -0.1613534   -0.0889690 
   0.250000000    -0.1672220   -0.0848881     0.2791858   -0.8938437     0.2792072   -0.8939114    -0.1688599   -0.0821488 
   0.260000000    -0.1744329   -0.0775960     0.2351948   -0.9047198     0.2344130   -0.9043238    -0.1752046   -0.0739921 
   0.270000000    -0.1813007   -0.0696375     0.1908453   -0.9128569     0.1899214   -0.9131208    -0.1820213   -0.0667711 
   0.280000000    -0.1877269   -0.0614490     0.1459431   -0.9197279     0.1457432   -0.9195629    -0.1879650   -0.0586768 
   0.290000000    -0.1935369   -0.0525459     0.1008177   -0.9237129     0.1001945   -0.9237147    -0.1936991   -0.0488449 
   0.300000000    -0.1984814   -0.0431543     0.0560372   -0.9260967     0.0564541   -0.9257236    -0.1988450   -0.0395516 
   0.310000000    -0.2021955   -0.0338056     0.0119619   -0.9242936     0.0109767   -0.9258718    -0.2023866   -0.0298060 
   0.320000000    -0.2045174   -0.0238579    -0.0321953   -0.9243163    -0.0335534   -0.9232502    -0.2044463   -0.0200716 
   0.330000000    -0.2059784   -0.0143392    -0.0774356   -0.9198550    -0.0761137   -0.9196264    -0.2053080   -0.0105655 
   0.340000000    -0.2062468   -0.0045738    -0.1208642   -0.9142852    -0.1205193   -0.9137810    -0.2062405   -0.0002884 
   0.350000000    -0.2054373    0.0051005    -0.1642740   -0.9060193    -0.1641377   -0.9061071    -0.2052207    0.0099831 
   0.360000000    -0.2045366    0.0147803    -0.2069115   -0.8966646    -0.2067791   -0.8964852    -0.2041013    0.0194914 
   0.370000000    -0.2027561    0.0246190    -0.2491445   -0.8851054    -0.2494760   -0.8841245    -0.2024975    0.0295879 
   0.380000000    -0.1999014    0.0345041    -0.2916580   -0.8704329    -0.2922061   -0.8705650    -0.1997213    0.0383726 
   0.390000000    -0.1964975    0.0439469    -0.3321499   -0.8553200    -0.3329459   -0.8548230    -0.1957744    0.0482524 
   0.400000000    -0.1926457    0.0526805    -0.3724862   -0.8373225    -0.3726934   -0.8371080    -0.1923254    0.0571049 
   0.410000000    -0.1876353    0.0617762    -0.4112555   -0.8183279    -0.4126689   -0.8185108    -0.1869865    0.0663406 
   0.420000000    -0.1816368    0.0691578    -0.4504852   -0.7983692    -0.4505173   -0.7974448    -0.1805117    0.0735296 
   0.430000000    -0.1745658    0.0756722    -0.4883118   -0.7751935    -0.4882515   -0.7756819    -0.1729681    0.0800519 
   0.440000000    -0.1671814    0.0811857    -0.5240853   -0.7512964    -0.5253159   -0.7500342    -0.1656455    0.0856872 
   0.450000000    -0.1595130    0.0864384    -0.5607574   -0.7250302    -0.5609542   -0.7241209    -0.1578659    0.0908379 
   0.460000000    -0.1515155    0.0909788    -0.5942767   -0.6964611    -0.5943273   -0.6978633    -0.1488682    0.0954392 
   0.470000000    -0.1429486    0.0951871    -0.6267970   -0.6675642    -0.6280485   -0.6673172    -0.1394133    0.0997833 
   0.480000000    -0.1336895    0.0986436    -0.6590854   -0.6366080    -0.6587704   -0.6360795    -0.1304090    0.1031212 
   0.490000000    -0.1245907    0.1019864    -0.6890095   -0.6044363    -0.6879793   -0.6030577    -0.1214374    0.1065842 
   0.500000000    -0.1159126    0.1037866    -0.7174739   -0.5696045    -0.7175784   -0.5694047    -0.1139981    0.1088969 
   0.510000000    -0.1061063    0.1045284    -0.7440573   -0.5351622    -0.7436885   -0.5346525    -0.1029818    0.1098173 
   0.520000000    -0.0968164    0.1048859    -0.7704964   -0.4988713    -0.7693356   -0.4973317    -0.0933086    0.1092254 
   0.530000000    -0.0875853    0.1033949    -0.7934375   -0.4606814    -0.7931046   -0.4598031    -0.0844394    0.1074689 
   0.540000000    -0.0786262    0.1003016    -0.8156996   -0.4212247    -0.8149796   -0.4217853    -0.0756763    0.1039638 
   0.550000000    -0.0692933    0.0963202    -0.8363534   -0.3805426    -0.8362245   -0.3808655    -0.0667085    0.1000816 
   0.560000000    -0.0613687    0.0916924    -0.8532774   -0.3399786    -0.8538619   -0.3398741    -0.0597445    0.0948174 
   0.570000000    -0.0526655    0.0870802    -0.8687816   -0.2974055    -0.8694205   -0.2969010    -0.0499398    0.0895983 
   0.580000000    -0.0448911    0.0815201    -0.8826386   -0.2550224    -0.8850317   -0.2528708    -0.0423378    0.0840652 
   0.590000000    -0.0383611    0.0753108    -0.8954985   -0.2106929    -0.8953769   -0.2105583    -0.0358073    0.0778340 
   0.600000000    -0.0313166    0.0696887    -0.9042855   -0.1647730    -0.9052522   -0.1661937    -0.0295923    0.0715296 
   0.610000000    -0.0263124    0.0636894    -0.9110199   -0.1213647    -0.9122099   -0.1205191    -0.0239837    0.0652053 
   0.620000000    -0.0206528    0.0560062    -0.9178677   -0.0754379    -0.9158011   -0.0750181    -0.0189588    0.0577294 
   0.630000000    -0.0170723    0.0478122    -0.9193941   -0.0296894    -0.9197806   -0.0309931    -0.0152260    0.0493857 
   0.640000000    -0.0142141    0.0383779    -0.9185840    0.0148108    -0.9212091    0.0158695    -0.0128852    0.0407454 
   0.650000000    -0.0122822    0.0288568    -0.9188044    0.0606359    -0.9176964    0.0613045    -0.0109738    0.0312156 
   0.660000000    -0.0109640    0.0191185    -0.9134099    0.1079437    -0.9124454    0.1064652    -0.0115335    0.0212134 
   0.670000000    -0.0106252    0.0074130    -0.9054765    0.1519235    -0.9080470    0.1521561    -0.0115978    0.0102394 
   0.680000000    -0.0124497   -0.0021538    -0.8985793    0.1955519    -0.8965549    0.1992566    -0.0137581    0.0001456 
   0.690000000    -0.0136443   -0.0109349    -0.8881814    0.2431278    -0.8855137    0.2414649    -0.0159482   -0.0091829 
   0.700000000    -0.0149321   -0.0191128    -0.8713161    0.2866912    -0.8747509    0.2855307    -0.0182620   -0.0177311 
   0.710000000    -0.0178072   -0.0269295    -0.8559467    0.3269911    -0.8570327    0.3297892    -0.0217478   -0.0246522 
   0.720000000    -0.0209926   -0.0347638    -0.8396696    0.3704865    -0.8375119    0.3696668    -0.0246552   -0.0316905 
   0.730000000    -0.0258983   -0.0418215    -0.8168255    0.4122800    -0.8194448    0.4119656    -0.0285823   -0.0383684 
   0.740000000    -0.0322964   -0.0500393    -0.7965049    0.4504345    -0.7962005    0.4529947    -0.0363122   -0.0457104 
   0.750000000    -0.0392190   -0.0567346    -0.7734638    0.4910164    -0.7702326    0.4898418    -0.0440121   -0.0520960 
   0.760000000    -0.0483786   -0.0628303    -0.7449864    0.5276332    -0.7456350    0.5265088    -0.0535400   -0.0579368 
   0.770000000    -0.0570842   -0.0694766    -0.7172971    0.5619658    -0.7169340    0.5640624    -0.0622370   -0.0631163 
   0.780000000    -0.0655074   -0.0750074    -0.6891422    0.5960363    -0.6862008    0.5969009    -0.0719610   -0.0677601 
   0.790000000    -0.0745864   -0.0784458    -0.6564573    0.6302429    -0.6564254    0.6277759    -0.0805930   -0.0713858 
   0.800000000    -0.0821460   -0.0816955    -0.6235783    0.6583624    -0.6243632    0.6602554    -0.0885313   -0.0745024 
   0.810000000    -0.0902910   -0.0840293    -0.5907022    0.6874946    -0.5893157    0.6895561    -0.0975498   -0.0765043 
   0.820000000    -0.0986171   -0.0844171    -0.5541736    0.7163773    -0.5542171    0.7154132    -0.1051829   -0.0759435 
   0.830000000    -0.1074006   -0.0843968    -0.5173830    0.7399945    -0.5170190    0.7422227    -0.1138086   -0.0743378 
   0.840000000    -0.1179752   -0.0829473    -0.4804628    0.7649119    -0.4785832    0.7639776    -0.1227474   -0.0722163 
   0.850000000    -0.1280743   -0.0811651    -0.4400110    0.7856411    -0.4406074    0.7855459    -0.1331340   -0.0695810 
   0.860000000    -0.1388563   -0.0779692    -0.4011922    0.8042958    -0.4004504    0.8054197    -0.1432189   -0.0655566 
   0.870000000    -0.1491801   -0.0758743    -0.3612732    0.8215095    -0.3598958    0.8211141    -0.1540887   -0.0614728 
   0.880000000    -0.1589041   -0.0719289    -0.3204120    0.8359703    -0.3201341    0.8364398    -0.1635427   -0.0566842 
   0.890000000    -0.1676176   -0.0680648    -0.2788600    0.8491060    -0.2781639    0.8497555    -0.1722848   -0.0515232 
   0.900000000    -0.1751029   -0.0630689    -0.2375484    0.8604211    -0.2359320    0.8610280    -0.1791912   -0.0465979 
   0.910000000    -0.1812803   -0.0574718    -0.1947112    0.8698578    -0.1945062    0.8698817    -0.1851592   -0.0394428 
   0.920000000    -0.1869367   -0.0506465    -0.1528226    0.8758615    -0.1516782    0.8766653    -0.1896350   -0.0316736 
   0.930000000    -0.1917712   -0.0425357    -0.1109534    0.8812598    -0.1089370    0.8822106    -0.1932939   -0.0237554 
   0.940000000    -0.1967514   -0.0335452    -0.0679732    0.8845026    -0.0665815    0.8841641    -0.1971648   -0.0154510 
   0.950000000    -0.2015301   -0.0243613    -0.0251716    0.8848805    -0.0231789    0.8856961    -0.2020213   -0.0060033 
   0.960000000    -0.2061159   -0.0144868     0.0178318    0.8848575     0.0182764    0.8840916    -0.2057463    0.0044828 
   0.970000000    -0.2107126   -0.0046978     0.0596629    0.8802934     0.0600847    0.8815523    -0.2088157    0.0145450 
   0.980000000    -0.2142887    0.0043825     0.1000400    0.8760787     0.1030413    0.8767496    -0.2116647    0.0253495 
   0.990000000    -0.2168579    0.0143665     0.1409365    0.8704246     0.1439093    0.8678949    -0.2131190    0.0353404 
   1.000000000    -0.2174181    0.0235922     0.1841288    0.8618255     0.1828362    0.8601702    -0.2132663    0.0442501 
   1.010000000    -0.2165585    0.0325332     0.2247574    0.8500749     0.2234464    0.8511660    -0.2121667    0.0526733 
   1.020000000    -0.2144257    0.0411976     0.2634721    0.8377582     0.2643627    0.8390167    -0.2087340    0.0619062 
   1.030000000    -0.2114165    0.0501868     0.3024969    0.8245028     0.3049511    0.8240826    -0.2045526    0.0711651 
   1.040000000    -0.2082906    0.0598186     0.3414183    0.8093596     0.3427157    0.8081228    -0.2001925    0.0797926 
   1.050000000    -0.2044230    0.0692803     0.3800209    0.7915400     0.3801017    0.7902621    -0.1957724    0.0894530 
   1.060000000    -0.2011136    0.0787834     0.4170662    0.7715448     0.4171412    0.7715386    -0.1908584    0.0995415 
   1.070000000    -0.1973434    0.0882341     0.4519502    0.7497982     0.4539997    0.7500936    -0.1859694    0.1079577 
   1.080000000    -0.1927593    0.0973033     0.4864454    0.7283666     0.4887320    0.7263803    -0.1804377    0.1168259 
   1.090000000    -0.1871363    0.1051038     0.5211425    0.7041442     0.5212839    0.7024667    -0.1736080    0.1239609 
   1.100000000    -0.1802700    0.1113768     0.5537674    0.6775594     0.5532876    0.6782429    -0.1672160    0.1296301 
   1.110000000    -0.1722632    0.1165594     0.5849060    0.6500256     0.5856602    0.6515891    -0.1596279    0.1343042 
   1.120000000    -0.1643137    0.1205206     0.6148417    0.6237022     0.6167715    0.6218256    -0.1504418    0.1377677 
   1.130000000    -0.1555456    0.1244570     0.6454349    0.5943561     0.6457162    0.5915500    -0.1396957    0.1407661 
   1.140000000    -0.1462187    0.1276301     0.6748868    0.5623387     0.6725782    0.5605119    -0.1301818    0.1428579 
   1.150000000    -0.1368934    0.1309452     0.7004746    0.5283175     0.6992988    0.5296507    -0.1201367    0.1458125 
   1.160000000    -0.1274041    0.1341801     0.7232459    0.4941773     0.7257968    0.4945254    -0.1098400    0.1479077 
   1.170000000    -0.1184769    0.1367913     0.7465780    0.4602852     0.7488699    0.4579445    -0.1007398    0.1494060 
   1.180000000    -0.1095553    0.1390128     0.7691849    0.4243847     0.7685217    0.4215685    -0.0911588    0.1512397 
   1.190000000    -0.1008607    0.1393488     0.7894873    0.3864421     0.7881360    0.3861767    -0.0813391    0.1508894 
   1.200000000    -0.0919816    0.1382214     0.8074355    0.3487394     0.8066376    0.3476889    -0.0723472    0.1492409 
   1.210000000    -0.0834530    0.1359485     0.8234395    0.3084705     0.8236291    0.3089801    -0.0644828    0.1455519 
   1.220000000    -0.0750526    0.1321179     0.8379258    0.2694217     0.8391017    0.2680831    -0.0563416    0.1416721 
   1.230000000    -0.0663409    0.1281509     0.8519710    0.2298516     0.8511003    0.2276022    -0.0482409    0.1361861 
   1.240000000    -0.0575679    0.1228203     0.8618175    0.1872566     0.8616033    0.1870322    -0.0396403    0.1299524 
   1.250000000    -0.0489701    0.1177058     0.8698977    0.1449886     0.8705344    0.1444101    -0.0318976    0.1243491 
   1.260000000    -0.0410738    0.1120611     0.8764486    0.1025342     0.8765604    0.1011723    -0.0237930    0.1175084 
   1.270000000    -0.0337116    0.1067732     0.8814092    0.0600115     0.8808724    0.0580533    -0.0173151    0.1112128 
   1.280000000    -0.0276323    0.1014401     0.8832583    0.0162375     0.8836505    0.0149082    -0.0120901    0.1054187 
   1.290000000    -0.0227422    0.0953495     0.8838464   -0.0262834     0.8832630   -0.0286628    -0.0068243    0.0987700 
   1.300000000    -0.0191686    0.0884380     0.8827931   -0.0701785     0.8810729   -0.0712714    -0.0033757    0.0919205 
   1.310000000    -0.0162736    0.0805281     0.8775470   -0.1142153     0.8780147   -0.1148368    -0.0009959    0.0828598 
   1.320000000    -0.0139849    0.0716299     0.8719624   -0.1575212     0.8706422   -0.1578880     0.0000624    0.0733308 
   1.330000000    -0.0122253    0.0618563     0.8632495   -0.2000775     0.8624565   -0.2005576     0.0000580    0.0626826 
   1.340000000    -0.0113069    0.0514021     0.8516182   -0.2422771     0.8521464   -0.2432701    -0.0005625    0.0526721 
   1.350000000    -0.0103942    0.0409936     0.8400264   -0.2846362     0.8390951   -0.2850890    -0.0013380    0.0428905 
   1.360000000    -0.0105252    0.0313275     0.8244928   -0.3253517     0.8240801   -0.3258847    -0.0023552    0.0331729 
   1.370000000    -0.0110788    0.0224746     0.8076316   -0.3661872     0.8069123   -0.3672157    -0.0040661    0.0246613 
   1.380000000    -0.0119482    0.0149703     0.7884653   -0.4058979     0.7870355   -0.4062142    -0.0075346    0.0173150 
   1.390000000    -0.0133500    0.0080515     0.7664925   -0.4442805     0.7656561   -0.4446669    -0.0105229    0.0109967 
   1.400000000    -0.0162967    0.0012192     0.7438015   -0.4808771     0.7425625   -0.4823061    -0.0139802    0.0048693 
   1.410000000    -0.0210166   -0.0052648     0.7187932   -0.5171274     0.7175040   -0.5181530    -0.0196916   -0.0018320 
   1.420000000    -0.0262586   -0.0116330     0.6916111   -0.5530636     0.6910275   -0.5521023    -0.0260907   -0.0073372 
   1.430000000    -0.0335570   -0.0180730     0.6622401   -0.5853241     0.6629180   -0.5855851    -0.0338625   -0.0127853 
   1.440000000    -0.0411261   -0.0243426     0.6325573   -0.6168975     0.6312572   -0.6180307    -0.0422776   -0.0180422 
   1.450000000    -0.0490601   -0.0303794     0.6007582   -0.6478974     0.5994582   -0.6469330    -0.0503191   -0.0219177 
   1.460000000    -0.0567483   -0.0353392     0.5676990   -0.6750056     0.5659437   -0.6759179    -0.0576206   -0.0253762 
   1.470000000    -0.0639833   -0.0393831     0.5341176   -0.7028551     0.5309377   -0.7011279    -0.0660039   -0.0278689 
   1.480000000    -0.0705077   -0.0428484     0.4967483   -0.7281647     0.4970057   -0.7254431    -0.0738527   -0.0296172 
   1.490000000    -0.0770170   -0.0451047     0.4594943   -0.7484520     0.4606311   -0.7504289    -0.0813002   -0.0289514 
   1.500000000    -0.0846234   -0.0463193     0.4229037   -0.7686036     0.4200607   -0.7710712    -0.0884841   -0.0281976 
   1.510000000    -0.0921341   -0.0464853     0.3843177   -0.7895675     0.3809890   -0.7885798    -0.0959325   -0.0266488 
